Freq.	V(br)
1.00000000000000e+002	(-4.39765970131255e-001dB,-1.64489199004914e+001°)
1.02329299228075e+002	(-4.59806350957362e-001dB,-1.68104371330922e+001°)
1.04712854805090e+002	(-4.80729010633759e-001dB,-1.71789294242521e+001°)
1.07151930523761e+002	(-5.02570069054387e-001dB,-1.75544672235325e+001°)
1.09647819614318e+002	(-5.25366894249729e-001dB,-1.79371172768564e+001°)
1.12201845430196e+002	(-5.49158126829929e-001dB,-1.83269422851816e+001°)
1.14815362149688e+002	(-5.73983703423740e-001dB,-1.87240005489407e+001°)
1.17489755493953e+002	(-5.99884878989384e-001dB,-1.91283455984201e+001°)
1.20226443461741e+002	(-6.26904247873180e-001dB,-1.95400258103399e+001°)
1.23026877081238e+002	(-6.55085763492935e-001dB,-1.99590840109954e+001°)
1.25892541179417e+002	(-6.84474756525863e-001dB,-2.03855570664205e+001°)
1.28824955169313e+002	(-7.15117951485711e-001dB,-2.08194754601463e+001°)
1.31825673855641e+002	(-7.47063481580527e-001dB,-2.12608628592405e+001°)
1.34896288259165e+002	(-7.80360901751942e-001dB,-2.17097356694322e+001°)
1.38038426460288e+002	(-8.15061199808834e-001dB,-2.21661025802502e+001°)
1.41253754462275e+002	(-8.51216805583239e-001dB,-2.26299641012245e+001°)
1.44543977074593e+002	(-8.88881598054545e-001dB,-2.31013120903276e+001°)
1.47910838816821e+002	(-9.28110910409804e-001dB,-2.35801292759526e+001°)
1.51356124843621e+002	(-9.68961533033335e-001dB,-2.40663887738447e+001°)
1.54881661891248e+002	(-1.01149171444855e+000dB,-2.45600536005166e+001°)
1.58489319246111e+002	(-1.05576116026837e+000dB,-2.50610761847773e+001°)
1.62181009735893e+002	(-1.10183103024931e+000dB,-2.55693978791008e+001°)
1.65958690743756e+002	(-1.14976393358673e+000dB,-2.60849484726294e+001°)
1.69824365246174e+002	(-1.19962392263707e+000dB,-2.66076457076683e+001°)
1.73780082874937e+002	(-1.25147648530539e+000dB,-2.71373948015555e+001°)
1.77827941003892e+002	(-1.30538853639436e+000dB,-2.76740879757954e+001°)
1.81970085860998e+002	(-1.36142840827391e+000dB,-2.82176039943179e+001°)
1.86208713666287e+002	(-1.41966584129875e+000dB,-2.87678077126554e+001°)
1.90546071796324e+002	(-1.48017197447417e+000dB,-2.93245496397217e+001°)
1.94984459975804e+002	(-1.54301933694831e+000dB,-2.98876655137192e+001°)
1.99526231496888e+002	(-1.60828184099226e+000dB,-3.04569758934922e+001°)
2.04173794466953e+002	(-1.67603477721652e+000dB,-3.10322857663700e+001°)
2.08929613085404e+002	(-1.74635481286423e+000dB,-3.16133841732149e+001°)
2.13796208950223e+002	(-1.81931999411757e+000dB,-3.22000438509821e+001°)
2.18776162394955e+002	(-1.89500975345327e+000dB,-3.27920208926215e+001°)
2.23872113856834e+002	(-1.97350492318656e+000dB,-3.33890544235897e+001°)
2.29086765276777e+002	(-2.05488775644959e+000dB,-3.39908662935920e+001°)
2.34422881531992e+002	(-2.13924195695998e+000dB,-3.45971607814349e+001°)
2.39883291901949e+002	(-2.22665271904791e+000dB,-3.52076243100287e+001°)
2.45470891568503e+002	(-2.31720677952609e+000dB,-3.58219251676343e+001°)
2.51188643150958e+002	(-2.41099248310570e+000dB,-3.64397132303913e+001°)
2.57039578276886e+002	(-2.50809986318374e+000dB,-3.70606196799826e+001°)
2.63026799189538e+002	(-2.60862073995391e+000dB,-3.76842567089852e+001°)
2.69153480392691e+002	(-2.71264883792401e+000dB,-3.83102172050030e+001°)
2.75422870333816e+002	(-2.82027992506017e+000dB,-3.89380744030718e+001°)
2.81838293126445e+002	(-2.93161197592306e+000dB,-3.95673814940533e+001°)
2.88403150312660e+002	(-3.04674536131505e+000dB,-4.01976711747601e+001°)
2.95120922666638e+002	(-3.16578306712326e+000dB,-4.08284551233734e+001°)
3.01995172040201e+002	(-3.28883094522419e+000dB,-4.14592233812739e+001°)
3.09029543251358e+002	(-3.41599799951403e+000dB,-4.20894436196853e+001°)
3.16227766016837e+002	(-3.54739671035016e+000dB,-4.27185602664616e+001°)
3.23593656929628e+002	(-3.68314340093761e+000dB,-4.33459934648880e+001°)
3.31131121482590e+002	(-3.82335864947457e+000dB,-4.39711378324156e+001°)
3.38844156139202e+002	(-3.96816775119131e+000dB,-4.45933609827368e+001°)
3.46736850452531e+002	(-4.11770123478206e+000dB,-4.52120017693924e+001°)
3.54813389233575e+002	(-4.27209543814879e+000dB,-4.58263682030508e+001°)
3.63078054770101e+002	(-4.43149314885763e+000dB,-4.64357349875227e+001°)
3.71535229097172e+002	(-4.59604431526224e+000dB,-4.70393406112511e+001°)
3.80189396320560e+002	(-4.76590683488352e+000dB,-4.76363839211616e+001°)
3.89045144994280e+002	(-4.94124742736317e+000dB,-4.82260200940261e+001°)
3.98107170553496e+002	(-5.12224260013881e+000dB,-4.88073559064544e+001°)
4.07380277804112e+002	(-5.30907971593239e+000dB,-4.93794441877340e+001°)
4.16869383470335e+002	(-5.50195817220972e+000dB,-4.99412773193293e+001°)
4.26579518801592e+002	(-5.70109070396308e+000dB,-5.04917796200637e+001°)
4.36515832240165e+002	(-5.90670482249427e+000dB,-5.10297984257902e+001°)
4.46683592150962e+002	(-6.11904440432511e+000dB,-5.15540936353576e+001°)
4.57088189614874e+002	(-6.33837144591902e+000dB,-5.20633254491900e+001°)
4.67735141287197e+002	(-6.56496800152425e+000dB,-5.25560399706472e+001°)
4.78630092322637e+002	(-6.79913832307987e+000dB,-5.30306522707441e+001°)
4.89778819368445e+002	(-7.04121122264914e+000dB,-5.34854264302031e+001°)
5.01187233627271e+002	(-7.29154267908217e+000dB,-5.39184519646021e+001°)
5.12861383991364e+002	(-7.55051871127923e+000dB,-5.43276159026083e+001°)
5.24807460249771e+002	(-7.81855854009037e+000dB,-5.47105696162267e+001°)
5.37031796370251e+002	(-8.09611805887514e+000dB,-5.50646892855814e+001°)
5.49540873857623e+002	(-8.38369362803155e+000dB,-5.53870286058541e+001°)
5.62341325190348e+002	(-8.68182619982338e+000dB,-5.56742619934320e+001°)
5.75439937337155e+002	(-8.99110576420831e+000dB,-5.59226160995935e+001°)
5.88843655355587e+002	(-9.31217608046924e+000dB,-5.61277868637788e+001°)
6.02559586074356e+002	(-9.64573961773728e+000dB,-5.62848385963568e+001°)
6.16595001861481e+002	(-9.99256256148492e+000dB,-5.63880806233154e+001°)
6.30957344480192e+002	(-1.03534796397240e+001dB,-5.64309157892490e+001°)
6.45654229034654e+002	(-1.07293983618529e+001dB,-5.64056535216132e+001°)
6.60693448007594e+002	(-1.11213020137122e+001dB,-5.63032781140878e+001°)
6.76082975391980e+002	(-1.15302503660293e+001dB,-5.61131602855492e+001°)
6.91830970918935e+002	(-1.19573764546491e+001dB,-5.58226968168546e+001°)
7.07945784384136e+002	(-1.24038768622344e+001dB,-5.54168591162730e+001°)
7.24435960074988e+002	(-1.28709914896881e+001dB,-5.48776270262635e+001°)
7.41310241300916e+002	(-1.33599665693330e+001dB,-5.41832795420584e+001°)
7.58577575029182e+002	(-1.38719912126760e+001dB,-5.33075106721567e+001°)
7.76247116628690e+002	(-1.44080924740966e+001dB,-5.22183394695522e+001°)
7.94328234724279e+002	(-1.49689658812140e+001dB,-5.08767948439968e+001°)
8.12830516164097e+002	(-1.55547065992866e+001dB,-4.92353915195313e+001°)
8.31763771102669e+002	(-1.61643900859618e+001dB,-4.72364995500596e+001°)
8.51138038202374e+002	(-1.67954311367321e+001dB,-4.48108941349257e+001°)
8.70963589956078e+002	(-1.74426328902886e+001dB,-4.18771350181760e+001°)
8.91250938133743e+002	(-1.80968427896342e+001dB,-3.83430742202348e+001°)
9.12010839355907e+002	(-1.87432101621989e+001dB,-3.41117998085151e+001°)
9.33254300796988e+002	(-1.93592853399664e+001dB,-2.90954843592713e+001°)
9.54992586021433e+002	(-1.99137317686102e+001dB,-2.32408535122907e+001°)
9.77237220955808e+002	(-2.03672095137889e+001dB,-1.65666998822409e+001°)
9.99999999999997e+002	(-2.06774284124553e+001dB,-9.20381189971902e+000°)
1.02329299228075e+003	(-2.08090531778583e+001dB,-1.41307470889388e+000°)
1.04712854805090e+003	(-2.07452764529262e+001dB,6.44584728985028e+000°)
1.07151930523760e+003	(-2.04943211772759e+001dB,1.39962065185223e+001°)
1.09647819614318e+003	(-2.00861807011631e+001dB,2.09355446842069e+001°)
1.12201845430196e+003	(-1.95620174330290e+001dB,2.70870071028118e+001°)
1.14815362149688e+003	(-1.89630574131804e+001dB,3.23962400735526e+001°)
1.17489755493953e+003	(-1.83237454488509e+001dB,3.68957664229493e+001°)
1.20226443461741e+003	(-1.76696001387477e+001dB,4.06647698161510e+001°)
1.23026877081238e+003	(-1.70179523845376e+001dB,4.37990578489955e+001°)
1.25892541179416e+003	(-1.63797550259045e+001dB,4.63934659386586e+001°)
1.28824955169313e+003	(-1.57614291446535e+001dB,4.85335623079962e+001°)
1.31825673855640e+003	(-1.51663563940175e+001dB,5.02928956043153e+001°)
1.34896288259165e+003	(-1.45959613928500e+001dB,5.17330549907145e+001°)
1.38038426460288e+003	(-1.40504518011380e+001dB,5.29049271680412e+001°)
1.41253754462275e+003	(-1.35293069250269e+001dB,5.38503097481084e+001°)
1.44543977074592e+003	(-1.30315930093575e+001dB,5.46034914804018e+001°)
1.47910838816820e+003	(-1.25561631609118e+001dB,5.51926462681598e+001°)
1.51356124843620e+003	(-1.21017819789699e+001dB,5.56410018019345e+001°)
1.54881661891248e+003	(-1.16672016315286e+001dB,5.59677933079841e+001°)
1.58489319246111e+003	(-1.12512068761541e+001dB,5.61890310159600e+001°)
1.62181009735892e+003	(-1.08526403615412e+001dB,5.63181135563758e+001°)
1.65958690743755e+003	(-1.04704155148250e+001dB,5.63663170799812e+001°)
1.69824365246174e+003	(-1.01035217086886e+001dB,5.63431854613528e+001°)
1.73780082874937e+003	(-9.75102471818538e+000dB,5.62568422891873e+001°)
1.77827941003892e+003	(-9.41206439215105e+000dB,5.61142411611317e+001°)
1.81970085860998e+003	(-9.08585076471226e+000dB,5.59213672999494e+001°)
1.86208713666286e+003	(-8.77165938123851e+000dB,5.56834006850070e+001°)
1.90546071796324e+003	(-8.46882632187450e+000dB,5.54048486631280e+001°)
1.94984459975804e+003	(-8.17674321792981e+000dB,5.50896542610297e+001°)
1.99526231496887e+003	(-7.89485243548860e+000dB,5.47412850688378e+001°)
2.04173794466952e+003	(-7.62264252316757e+000dB,5.43628065160493e+001°)
2.08929613085403e+003	(-7.35964397179922e+000dB,5.39569425492528e+001°)
2.13796208950222e+003	(-7.10542530308070e+000dB,5.35261260907910e+001°)
2.18776162394954e+003	(-6.85958948546135e+000dB,5.30725411674538e+001°)
2.23872113856833e+003	(-6.62177066453857e+000dB,5.25981582158186e+001°)
2.29086765276776e+003	(-6.39163118922199e+000dB,5.21047637713890e+001°)
2.34422881531991e+003	(-6.16885891210116e+000dB,5.15939855132318e+001°)
2.39883291901948e+003	(-5.95316474161795e+000dB,5.10673134499820e+001°)
2.45470891568502e+003	(-5.74428042402139e+000dB,5.05261178858100e+001°)
2.51188643150957e+003	(-5.54195653416259e+000dB,4.99716646877262e+001°)
2.57039578276885e+003	(-5.34596065563632e+000dB,4.94051282819406e+001°)
2.63026799189537e+003	(-5.15607573239006e+000dB,4.88276027318361e+001°)
2.69153480392690e+003	(-4.97209857556070e+000dB,4.82401111895668e+001°)
2.75422870333815e+003	(-4.79383851089139e+000dB,4.76436139643145e+001°)
2.81838293126444e+003	(-4.62111615357369e+000dB,4.70390154104682e+001°)
2.88403150312659e+003	(-4.45376229873494e+000dB,4.64271698065464e+001°)
2.95120922666637e+003	(-4.29161691703369e+000dB,4.58088863691409e+001°)
3.01995172040200e+003	(-4.13452824594016e+000dB,4.51849335243177e+001°)
3.09029543251358e+003	(-3.98235196826682e+000dB,4.45560425408871e+001°)
3.16227766016836e+003	(-3.83495047038518e+000dB,4.39229106150006e+001°)
3.23593656929627e+003	(-3.69219217332965e+000dB,4.32862034830571e+001°)
3.31131121482590e+003	(-3.55395093065601e+000dB,4.26465576294655e+001°)
3.38844156139201e+003	(-3.42010548750411e+000dB,4.20045821469972e+001°)
3.46736850452530e+003	(-3.29053899581945e+000dB,4.13608603000065e+001°)
3.54813389233574e+003	(-3.16513858112807e+000dB,4.07159508344331e+001°)
3.63078054770100e+003	(-3.04379495664067e+000dB,4.00703890730330e+001°)
3.71535229097171e+003	(-2.92640208079590e+000dB,3.94246878295579e+001°)
3.80189396320559e+003	(-2.81285685464279e+000dB,3.87793381714987e+001°)
3.89045144994279e+003	(-2.70305885571942e+000dB,3.81348100573912e+001°)
3.98107170553495e+003	(-2.59691010531133e+000dB,3.74915528715076e+001°)
4.07380277804111e+003	(-2.49431486617613e+000dB,3.68499958759339e+001°)
4.16869383470333e+003	(-2.39517946800352e+000dB,3.62105485974994e+001°)
4.26579518801591e+003	(-2.29941215804660e+000dB,3.55736011647792e+001°)
4.36515832240164e+003	(-2.20692297451552e+000dB,3.49395246083287e+001°)
4.46683592150961e+003	(-2.11762364046683e+000dB,3.43086711354916e+001°)
4.57088189614873e+003	(-2.03142747605965e+000dB,3.36813743894340e+001°)
4.67735141287196e+003	(-1.94824932717800e+000dB,3.30579497005654e+001°)
4.78630092322636e+003	(-1.86800550854462e+000dB,3.24386943371281e+001°)
4.89778819368444e+003	(-1.79061375957080e+000dB,3.18238877605107e+001°)
5.01187233627270e+003	(-1.71599321130572e+000dB,3.12137918897260e+001°)
5.12861383991362e+003	(-1.64406436296247e+000dB,3.06086513784892e+001°)
5.24807460249770e+003	(-1.57474906660918e+000dB,3.00086939074536e+001°)
5.37031796370250e+003	(-1.50797051872411e+000dB,2.94141304933532e+001°)
5.49540873857622e+003	(-1.44365325741900e+000dB,2.88251558161185e+001°)
5.62341325190346e+003	(-1.38172316423889e+000dB,2.82419485644135e+001°)
5.75439937337154e+003	(-1.32210746954728e+000dB,2.76646717995237e+001°)
5.88843655355586e+003	(-1.26473476060129e+000dB,2.70934733370742e+001°)
6.02559586074354e+003	(-1.20953499151721e+000dB,2.65284861456819e+001°)
6.16595001861479e+003	(-1.15643949441322e+000dB,2.59698287613436e+001°)
6.30957344480190e+003	(-1.10538099110319e+000dB,2.54176057161098e+001°)
6.45654229034652e+003	(-1.05629360479534e+000dB,2.48719079794092e+001°)
6.60693448007592e+003	(-1.00911287132493e+000dB,2.43328134102489e+001°)
6.76082975391978e+003	(-9.63775749521669e-001dB,2.38003872184250e+001°)
6.91830970918932e+003	(-9.20220630378486e-001dB,2.32746824328245e+001°)
7.07945784384134e+003	(-8.78387344748630e-001dB,2.27557403748851e+001°)
7.24435960074986e+003	(-8.38217169355030e-001dB,2.22435911352930e+001°)
7.41310241300913e+003	(-7.99652830945525e-001dB,2.17382540520453e+001°)
7.58577575029179e+003	(-7.62638508475171e-001dB,2.12397381880616e+001°)
7.76247116628687e+003	(-7.27119833236391e-001dB,2.07480428066146e+001°)
7.94328234724277e+003	(-6.93043886896106e-001dB,2.02631578429484e+001°)
8.12830516164094e+003	(-6.60359197430479e-001dB,1.97850643705570e+001°)
8.31763771102666e+003	(-6.29015732975530e-001dB,1.93137350607154e+001°)
8.51138038202371e+003	(-5.98964893637905e-001dB,1.88491346339762e+001°)
8.70963589956075e+003	(-5.70159501328403e-001dB,1.83912203024701e+001°)
8.91250938133740e+003	(-5.42553787699923e-001dB,1.79399422019717e+001°)
9.12010839355904e+003	(-5.16103380284173e-001dB,1.74952438128253e+001°)
9.33254300796985e+003	(-4.90765286933862e-001dB,1.70570623689369e+001°)
9.54992586021430e+003	(-4.66497878684302e-001dB,1.66253292541641e+001°)
9.77237220955804e+003	(-4.43260871155760e-001dB,1.61999703855550e+001°)
9.99999999999993e+003	(-4.21015304621688e-001dB,1.57809065829793e+001°)
1.02329299228075e+004	(-3.99723522869575e-001dB,1.53680539248243e+001°)
1.04712854805089e+004	(-3.79349150983213e-001dB,1.49613240894884e+001°)
1.07151930523760e+004	(-3.59857072173368e-001dB,1.45606246825358e+001°)
1.09647819614318e+004	(-3.41213403782361e-001dB,1.41658595494201e+001°)
1.12201845430196e+004	(-3.23385472585343e-001dB,1.37769290737872e+001°)
1.14815362149688e+004	(-3.06341789507373e-001dB,1.33937304614191e+001°)
1.17489755493952e+004	(-2.90052023870338e-001dB,1.30161580099470e+001°)
1.20226443461740e+004	(-2.74486977280221e-001dB,1.26441033645260e+001°)
1.23026877081237e+004	(-2.59618557258217e-001dB,1.22774557596877e+001°)
1.25892541179416e+004	(-2.45419750715348e-001dB,1.19161022476630e+001°)
1.28824955169313e+004	(-2.31864597362779e-001dB,1.15599279134620e+001°)
1.31825673855640e+004	(-2.18928163145603e-001dB,1.12088160770715e+001°)
1.34896288259164e+004	(-2.06586513780900e-001dB,1.08626484831315e+001°)
1.38038426460288e+004	(-1.94816688475463e-001dB,1.05213054784612e+001°)
1.41253754462274e+004	(-1.83596673892608e-001dB,1.01846661778671e+001°)
1.44543977074592e+004	(-1.72905378432370e-001dB,9.85260861862506e+000°)
1.47910838816820e+004	(-1.62722606882295e-001dB,9.52500990407471e+000°)
1.51356124843620e+004	(-1.53029035493638e-001dB,9.20174633675981e+000°)
1.54881661891247e+004	(-1.43806187528990e-001dB,8.88269354154017e+000°)
1.58489319246110e+004	(-1.35036409326215e-001dB,8.56772657912397e+000°)
1.62181009735892e+004	(-1.26702846916202e-001dB,8.25672005044834e+000°)
1.65958690743755e+004	(-1.18789423229321e-001dB,7.94954819234189e+000°)
1.69824365246173e+004	(-1.11280815920552e-001dB,7.64608496489741e+000°)
1.73780082874936e+004	(-1.04162435840207e-001dB,7.34620413097095e+000°)
1.77827941003891e+004	(-9.74204061729051e-002dB,7.04977932823293e+000°)
1.81970085860997e+004	(-9.10415422648473e-002dB,6.75668413415808e+000°)
1.86208713666285e+004	(-8.50133321563453e-002dB,6.46679212436310e+000°)
1.90546071796323e+004	(-7.93239178332770e-002dB,6.17997692467835e+000°)
1.94984459975803e+004	(-7.39620772099550e-002dB,5.89611225731764e+000°)
1.99526231496887e+004	(-6.89172068518716e-002dB,5.61507198152577e+000°)
2.04173794466951e+004	(-6.41793054465867e-002dB,5.33673012904904e+000°)
2.08929613085402e+004	(-5.97389580276542e-002dB,5.06096093477464e+000°)
2.13796208950222e+004	(-5.55873209558876e-002dB,4.78763886287507e+000°)
2.18776162394954e+004	(-5.17161076603359e-002dB,4.51663862878285e+000°)
2.23872113856832e+004	(-4.81175751405363e-002dB,4.24783521729519e+000°)
2.29086765276776e+004	(-4.47845112293660e-002dB,3.98110389713287e+000°)
2.34422881531990e+004	(-4.17102226165808e-002dB,3.71632023222493e+000°)
2.39883291901947e+004	(-3.88885236306507e-002dB,3.45336009002674e+000°)
2.45470891568501e+004	(-3.63137257771274e-002dB,3.19209964712541e+000°)
2.51188643150956e+004	(-3.39806280299603e-002dB,2.93241539242258e+000°)
2.57039578276884e+004	(-3.18845078724186e-002dB,2.67418412812532e+000°)
2.63026799189536e+004	(-3.00211130844867e-002dB,2.41728296885144e+000°)
2.69153480392689e+004	(-2.83866542712160e-002dB,2.16158933902818e+000°)
2.75422870333814e+004	(-2.69777981285459e-002dB,1.90698096888651e+000°)
2.81838293126443e+004	(-2.57916614419304e-002dB,1.65333588926215e+000°)
2.88403150312658e+004	(-2.48258058117963e-002dB,1.40053242543396e+000°)
2.95120922666636e+004	(-2.40782331026881e-002dB,1.14844919024167e+000°)
3.01995172040199e+004	(-2.35473816090331e-002dB,8.96965076701051e-001°)
3.09029543251357e+004	(-2.32321229343453e-002dB,6.45959250345524e-001°)
3.16227766016835e+004	(-2.31317595767305e-002dB,3.95311141522365e-001°)
3.23593656929626e+004	(-2.32460232170391e-002dB,1.44900437856943e-001°)
3.31131121482588e+004	(-2.35750737032834e-002dB,-1.05392922895362e-001°)
3.38844156139200e+004	(-2.41194987259818e-002dB,-3.55688759359578e-001°)
3.46736850452529e+004	(-2.48803141792584e-002dB,-6.06106652219008e-001°)
3.54813389233573e+004	(-2.58589652011621e-002dB,-8.56765948824191e-001°)
3.63078054770098e+004	(-2.70573278875293e-002dB,-1.10778576649897e+000°)
3.71535229097169e+004	(-2.84777116731654e-002dB,-1.35928499430164e+000°)
3.80189396320558e+004	(-3.01228623729322e-002dB,-1.61138229302937e+000°)
3.89045144994277e+004	(-3.19959658765014e-002dB,-1.86419609320353e+000°)
3.98107170553494e+004	(-3.41006524877561e-002dB,-2.11784459079037e+000°)
4.07380277804109e+004	(-3.64410019016543e-002dB,-2.37244574041252e+000°)
4.16869383470332e+004	(-3.90215488084952e-002dB,-2.62811724579153e+000°)
4.26579518801589e+004	(-4.18472891154823e-002dB,-2.88497654713489e+000°)
4.36515832240162e+004	(-4.49236867750840e-002dB,-3.14314080522911e+000°)
4.46683592150959e+004	(-4.82566812067166e-002dB,-3.40272688192758e+000°)
4.57088189614871e+004	(-5.18526952988639e-002dB,-3.66385131674940e+000°)
4.67735141287194e+004	(-5.57186439758772e-002dB,-3.92663029930409e+000°)
4.78630092322634e+004	(-5.98619433120112e-002dB,-4.19117963722780e+000°)
4.89778819368442e+004	(-6.42905201746801e-002dB,-4.45761471930114e+000°)
5.01187233627268e+004	(-6.90128223739739e-002dB,-4.72605047344347e+000°)
5.12861383991360e+004	(-7.40378292961318e-002dB,-4.99660131925433e+000°)
5.24807460249768e+004	(-7.93750629939065e-002dB,-5.26938111471514e+000°)
5.37031796370248e+004	(-8.50345997044582e-002dB,-5.54450309678055e+000°)
5.49540873857620e+004	(-9.10270817620852e-002dB,-5.82207981539889e+000°)
