Freq.	V(hp)
1.00000000000000e+002	(-3.05642067768656e+001dB,8.92177489331221e+001°)
1.02329299228075e+002	(-3.03628579935645e+001dB,8.91973590941604e+001°)
1.04712854805090e+002	(-3.01614521776936e+001dB,8.91763486139258e+001°)
1.07151930523761e+002	(-2.99599872277745e+001dB,8.91546936993984e+001°)
1.09647819614318e+002	(-2.97584609937706e+001dB,8.91323694571804e+001°)
1.12201845430196e+002	(-2.95568712788468e+001dB,8.91093498419042e+001°)
1.14815362149688e+002	(-2.93552158414952e+001dB,8.90856076029067e+001°)
1.17489755493953e+002	(-2.91534923980587e+001dB,8.90611142292127e+001°)
1.20226443461741e+002	(-2.89516986256860e+001dB,8.90358398928828e+001°)
1.23026877081238e+002	(-2.87498321657507e+001dB,8.90097533908012e+001°)
1.25892541179417e+002	(-2.85478906277714e+001dB,8.89828220849972e+001°)
1.28824955169313e+002	(-2.83458715938671e+001dB,8.89550118416115e+001°)
1.31825673855641e+002	(-2.81437726237880e+001dB,8.89262869686470e+001°)
1.34896288259165e+002	(-2.79415912605563e+001dB,8.88966101526620e+001°)
1.38038426460288e+002	(-2.77393250367576e+001dB,8.88659423945927e+001°)
1.41253754462275e+002	(-2.75369714815202e+001dB,8.88342429449210e+001°)
1.44543977074593e+002	(-2.73345281282200e+001dB,8.88014692384310e+001°)
1.47910838816821e+002	(-2.71319925229497e+001dB,8.87675768288286e+001°)
1.51356124843621e+002	(-2.69293622337864e+001dB,8.87325193235357e+001°)
1.54881661891248e+002	(-2.67266348608951e+001dB,8.86962483189991e+001°)
1.58489319246111e+002	(-2.65238080474976e+001dB,8.86587133368939e+001°)
1.62181009735893e+002	(-2.63208794917394e+001dB,8.86198617616361e+001°)
1.65958690743756e+002	(-2.61178469594785e+001dB,8.85796387796545e+001°)
1.69824365246174e+002	(-2.59147082980203e+001dB,8.85379873209117e+001°)
1.73780082874937e+002	(-2.57114614508147e+001dB,8.84948480031977e+001°)
1.77827941003892e+002	(-2.55081044731279e+001dB,8.84501590797569e+001°)
1.81970085860998e+002	(-2.53046355486928e+001dB,8.84038563908422e+001°)
1.86208713666287e+002	(-2.51010530073380e+001dB,8.83558733198227e+001°)
1.90546071796324e+002	(-2.48973553435826e+001dB,8.83061407544983e+001°)
1.94984459975804e+002	(-2.46935412361782e+001dB,8.82545870543019e+001°)
1.99526231496888e+002	(-2.44896095685687e+001dB,8.82011380240870e+001°)
2.04173794466953e+002	(-2.42855594502269e+001dB,8.81457168952154e+001°)
2.08929613085404e+002	(-2.40813902388156e+001dB,8.80882443146652e+001°)
2.13796208950223e+002	(-2.38771015631090e+001dB,8.80286383428807e+001°)
2.18776162394955e+002	(-2.36726933465965e+001dB,8.79668144610763e+001°)
2.23872113856834e+002	(-2.34681658316780e+001dB,8.79026855886885e+001°)
2.29086765276777e+002	(-2.32635196043446e+001dB,8.78361621116395e+001°)
2.34422881531992e+002	(-2.30587556192280e+001dB,8.77671519220367e+001°)
2.39883291901949e+002	(-2.28538752248820e+001dB,8.76955604698810e+001°)
2.45470891568503e+002	(-2.26488801891528e+001dB,8.76212908272849e+001°)
2.51188643150958e+002	(-2.24437727244747e+001dB,8.75442437656301e+001°)
2.57039578276886e+002	(-2.22385555129208e+001dB,8.74643178459957e+001°)
2.63026799189538e+002	(-2.20332317308235e+001dB,8.73814095230827e+001°)
2.69153480392691e+002	(-2.18278050727711e+001dB,8.72954132627446e+001°)
2.75422870333816e+002	(-2.16222797747788e+001dB,8.72062216730955e+001°)
2.81838293126445e+002	(-2.14166606364254e+001dB,8.71137256490280e+001°)
2.88403150312660e+002	(-2.12109530417438e+001dB,8.70178145298170e+001°)
2.95120922666638e+002	(-2.10051629786533e+001dB,8.69183762693222e+001°)
3.01995172040201e+002	(-2.07992970567223e+001dB,8.68152976181337e+001°)
3.09029543251358e+002	(-2.05933625230560e+001dB,8.67084643168301e+001°)
3.16227766016837e+002	(-2.03873672761134e+001dB,8.65977612993455e+001°)
3.23593656929628e+002	(-2.01813198772691e+001dB,8.64830729052672e+001°)
3.31131121482590e+002	(-1.99752295599516e+001dB,8.63642830997197e+001°)
3.38844156139202e+002	(-1.97691062362113e+001dB,8.62412756993302e+001°)
3.46736850452531e+002	(-1.95629605005923e+001dB,8.61139346026267e+001°)
3.54813389233575e+002	(-1.93568036312118e+001dB,8.59821440230883e+001°)
3.63078054770101e+002	(-1.91506475879792e+001dB,8.58457887229584e+001°)
3.71535229097172e+002	(-1.89445050079210e+001dB,8.57047542458459e+001°)
3.80189396320560e+002	(-1.87383891976118e+001dB,8.55589271460780e+001°)
3.89045144994280e+002	(-1.85323141227518e+001dB,8.54081952127431e+001°)
3.98107170553496e+002	(-1.83262943949656e+001dB,8.52524476863590e+001°)
4.07380277804112e+002	(-1.81203452559410e+001dB,8.50915754661427e+001°)
4.16869383470335e+002	(-1.79144825590610e+001dB,8.49254713059275e+001°)
4.26579518801592e+002	(-1.77087227487235e+001dB,8.47540299968779e+001°)
4.36515832240165e+002	(-1.75030828375785e+001dB,8.45771485352980e+001°)
4.46683592150962e+002	(-1.72975803819457e+001dB,8.43947262739975e+001°)
4.57088189614874e+002	(-1.70922334557064e+001dB,8.42066650558927e+001°)
4.67735141287197e+002	(-1.68870606229921e+001dB,8.40128693287444e+001°)
4.78630092322637e+002	(-1.66820809100107e+001dB,8.38132462402041e+001°)
4.89778819368445e+002	(-1.64773137763713e+001dB,8.36077057126071e+001°)
5.01187233627271e+002	(-1.62727790862782e+001dB,8.33961604972561e+001°)
5.12861383991364e+002	(-1.60684970799709e+001dB,8.31785262082334e+001°)
5.24807460249771e+002	(-1.58644883457861e+001dB,8.29547213360954e+001°)
5.37031796370251e+002	(-1.56607737932103e+001dB,8.27246672421067e+001°)
5.49540873857623e+002	(-1.54573746272807e+001dB,8.24882881339698e+001°)
5.62341325190348e+002	(-1.52543123246704e+001dB,8.22455110242989e+001°)
5.75439937337155e+002	(-1.50516086117736e+001dB,8.19962656733483e+001°)
5.88843655355587e+002	(-1.48492854450738e+001dB,8.17404845177601e+001°)
6.02559586074356e+002	(-1.46473649940463e+001dB,8.14781025873081e+001°)
6.16595001861481e+002	(-1.44458696268104e+001dB,8.12090574118133e+001°)
6.30957344480192e+002	(-1.42448218987014e+001dB,8.09332889205527e+001°)
6.45654229034654e+002	(-1.40442445438960e+001dB,8.06507393366131e+001°)
6.60693448007594e+002	(-1.38441604701746e+001dB,8.03613530687220e+001°)
6.76082975391980e+002	(-1.36445927568633e+001dB,8.00650766031372e+001°)
6.91830970918935e+002	(-1.34455646559500e+001dB,7.97618583981901e+001°)
7.07945784384136e+002	(-1.32470995963252e+001dB,7.94516487840532e+001°)
7.24435960074988e+002	(-1.30492211910565e+001dB,7.91343998702494e+001°)
7.41310241300916e+002	(-1.28519532475612e+001dB,7.88100654633287e+001°)
7.58577575029182e+002	(-1.26553197805053e+001dB,7.84786009970279e+001°)
7.76247116628690e+002	(-1.24593450272181e+001dB,7.81399634770826e+001°)
7.94328234724279e+002	(-1.22640534653812e+001dB,7.77941114427039e+001°)
8.12830516164097e+002	(-1.20694698327171e+001dB,7.74410049465418e+001°)
8.31763771102669e+002	(-1.18756191483814e+001dB,7.70806055547697e+001°)
8.51138038202374e+002	(-1.16825267357336e+001dB,7.67128763687056e+001°)
8.70963589956078e+002	(-1.14902182461478e+001dB,7.63377820691722e+001°)
8.91250938133743e+002	(-1.12987196835057e+001dB,7.59552889845715e+001°)
9.12010839355907e+002	(-1.11080574290023e+001dB,7.55653651834185e+001°)
9.33254300796988e+002	(-1.09182582658883e+001dB,7.51679805918498e+001°)
9.54992586021433e+002	(-1.07293494037632e+001dB,7.47631071363917e+001°)
9.77237220955808e+002	(-1.05413585020350e+001dB,7.43507189120442e+001°)
9.99999999999997e+002	(-1.03543136921567e+001dB,7.39307923755107e+001°)
1.02329299228075e+003	(-1.01682435982589e+001dB,7.35033065631840e+001°)
1.04712854805090e+003	(-9.98317735579539e+000dB,7.30682433332798e+001°)
1.07151930523760e+003	(-9.79914462783082e+000dB,7.26255876312995e+001°)
1.09647819614318e+003	(-9.61617561860645e+000dB,7.21753277777958e+001°)
1.12201845430196e+003	(-9.43430108403004e+000dB,7.17174557772150e+001°)
1.14815362149688e+003	(-9.25355233875029e+000dB,7.12519676463922e+001°)
1.17489755493953e+003	(-9.07396125948944e+000dB,7.07788637610858e+001°)
1.20226443461741e+003	(-8.89556028432465e+000dB,7.02981492187494e+001°)
1.23026877081238e+003	(-8.71838240762634e+000dB,6.98098342155629e+001°)
1.25892541179416e+003	(-8.54246117038189e+000dB,6.93139344355606e+001°)
1.28824955169313e+003	(-8.36783064565481e+000dB,6.88104714495311e+001°)
1.31825673855640e+003	(-8.19452541895339e+000dB,6.82994731211929e+001°)
1.34896288259165e+003	(-8.02258056330869e+000dB,6.77809740179919e+001°)
1.38038426460288e+003	(-7.85203160889024e+000dB,6.72550158237163e+001°)
1.41253754462275e+003	(-7.68291450701781e+000dB,6.67216477499808e+001°)
1.44543977074592e+003	(-7.51526558846128e+000dB,6.61809269434943e+001°)
1.47910838816820e+003	(-7.34912151595551e+000dB,6.56329188859112e+001°)
1.51356124843620e+003	(-7.18451923089544e+000dB,6.50776977829503e+001°)
1.54881661891248e+003	(-7.02149589421718e+000dB,6.45153469393781e+001°)
1.58489319246111e+003	(-6.86008882151411e+000dB,6.39459591163774e+001°)
1.62181009735892e+003	(-6.70033541248190e+000dB,6.33696368677712e+001°)
1.65958690743755e+003	(-6.54227307483510e+000dB,6.27864928515414e+001°)
1.69824365246174e+003	(-6.38593914288695e+000dB,6.21966501130810e+001°)
1.73780082874937e+003	(-6.23137079103569e+000dB,6.16002423366495e+001°)
1.77827941003892e+003	(-6.07860494245379e+000dB,6.09974140615557e+001°)
1.81970085860998e+003	(-5.92767817332973e+000dB,6.03883208596937e+001°)
1.86208713666286e+003	(-5.77862661306629e+000dB,5.97731294711862e+001°)
1.90546071796324e+003	(-5.63148584089266e+000dB,5.91520178950654e+001°)
1.94984459975804e+003	(-5.48629077940034e+000dB,5.85251754321320e+001°)
1.99526231496887e+003	(-5.34307558556377e+000dB,5.78928026773835e+001°)
2.04173794466952e+003	(-5.20187353985464e+000dB,5.72551114597093e+001°)
2.08929613085403e+003	(-5.06271693410381e+000dB,5.66123247268733e+001°)
2.13796208950222e+003	(-4.92563695880516e+000dB,5.59646763741920e+001°)
2.18776162394954e+003	(-4.79066359059100e+000dB,5.53124110157235e+001°)
2.23872113856833e+003	(-4.65782548063788e+000dB,5.46557836972352e+001°)
2.29086765276776e+003	(-4.52714984478451e+000dB,5.39950595506923e+001°)
2.34422881531991e+003	(-4.39866235615759e+000dB,5.33305133905190e+001°)
2.39883291901948e+003	(-4.27238704110889e+000dB,5.26624292524002e+001°)
2.45470891568502e+003	(-4.14834617926409e+000dB,5.19910998759367e+001°)
2.51188643150957e+003	(-4.02656020847278e+000dB,5.13168261330041e+001°)
2.57039578276885e+003	(-3.90704763542824e+000dB,5.06399164042095e+001°)
2.63026799189537e+003	(-3.78982495269517e+000dB,4.99606859063708e+001°)
2.69153480392690e+003	(-3.67490656284316e+000dB,4.92794559744600e+001°)
2.75422870333815e+003	(-3.56230471033554e+000dB,4.85965533019332e+001°)
2.81838293126444e+003	(-3.45202942176375e+000dB,4.79123091438313e+001°)
2.88403150312659e+003	(-3.34408845495248e+000dB,4.72270584874393e+001°)
2.95120922666637e+003	(-3.23848725738629e+000dB,4.65411391956565e+001°)
3.01995172040200e+003	(-3.13522893432886e+000dB,4.58548911285346e+001°)
3.09029543251358e+003	(-3.03431422692034e+000dB,4.51686552486839e+001°)
3.16227766016836e+003	(-2.93574150044882e+000dB,4.44827727164269e+001°)
3.23593656929627e+003	(-2.83950674290004e+000dB,4.37975839806821e+001°)
3.31131121482590e+003	(-2.74560357379501e+000dB,4.31134278716059e+001°)
3.38844156139201e+003	(-2.65402326323292e+000dB,4.24306407009728e+001°)
3.46736850452530e+003	(-2.56475476096296e+000dB,4.17495553761835e+001°)
3.54813389233574e+003	(-2.47778473522119e+000dB,4.10705005335977e+001°)
3.63078054770100e+003	(-2.39309762098218e+000dB,4.03937996966588e+001°)
3.71535229097171e+003	(-2.31067567719602e+000dB,3.97197704639714e+001°)
3.80189396320559e+003	(-2.23049905250894e+000dB,3.90487237321301e+001°)
3.89045144994279e+003	(-2.15254585889836e+000dB,3.83809629576977e+001°)
3.98107170553495e+003	(-2.07679225259803e+000dB,3.77167834622734e+001°)
4.07380277804111e+003	(-2.00321252163878e+000dB,3.70564717841186e+001°)
4.16869383470333e+003	(-1.93177917929243e+000dB,3.64003050792883e+001°)
4.26579518801591e+003	(-1.86246306267615e+000dB,3.57485505747015e+001°)
4.36515832240164e+003	(-1.79523343575517e+000dB,3.51014650750430e+001°)
4.46683592150961e+003	(-1.73005809597128e+000dB,3.44592945248565e+001°)
4.57088189614873e+003	(-1.66690348372309e+000dB,3.38222736266635e+001°)
4.67735141287196e+003	(-1.60573479393246e+000dB,3.31906255154284e+001°)
4.78630092322636e+003	(-1.54651608894636e+000dB,3.25645614891987e+001°)
4.89778819368444e+003	(-1.48921041204746e+000dB,3.19442807952869e+001°)
5.01187233627270e+003	(-1.43377990087727e+000dB,3.13299704709275e+001°)
5.12861383991362e+003	(-1.38018590011044e+000dB,3.07218052369447e+001°)
5.24807460249770e+003	(-1.32838907276174e+000dB,3.01199474426117e+001°)
5.37031796370250e+003	(-1.27834950955040e+000dB,2.95245470595688e+001°)
5.49540873857622e+003	(-1.23002683579716e+000dB,2.89357417223893e+001°)
5.62341325190346e+003	(-1.18338031537854e+000dB,2.83536568131565e+001°)
5.75439937337154e+003	(-1.13836895131551e+000dB,2.77784055872353e+001°)
5.88843655355586e+003	(-1.09495158262738e+000dB,2.72100893372616e+001°)
6.02559586074354e+003	(-1.05308697713373e+000dB,2.66487975922929e+001°)
6.16595001861479e+003	(-1.01273391993953e+000dB,2.60946083489794e+001°)
6.30957344480190e+003	(-9.73851297389810e-001dB,2.55475883315957e+001°)
6.45654229034652e+003	(-9.36398176328441e-001dB,2.50077932777858e+001°)
6.60693448007592e+003	(-9.00333878542264e-001dB,2.44752682468935e+001°)
6.76082975391978e+003	(-8.65618050316252e-001dB,2.39500479478299e+001°)
6.91830970918932e+003	(-8.32210727065104e-001dB,2.34321570835083e+001°)
7.07945784384134e+003	(-8.00072393045182e-001dB,2.29216107089852e+001°)
7.24435960074986e+003	(-7.69164036185058e-001dB,2.24184146005745e+001°)
7.41310241300913e+003	(-7.39447198102662e-001dB,2.19225656333363e+001°)
7.58577575029179e+003	(-7.10884019406590e-001dB,2.14340521644949e+001°)
7.76247116628687e+003	(-6.83437280400685e-001dB,2.09528544204997e+001°)
7.94328234724277e+003	(-6.57070437334189e-001dB,2.04789448855984e+001°)
8.12830516164094e+003	(-6.31747654355655e-001dB,2.00122886899719e+001°)
8.31763771102666e+003	(-6.07433831343784e-001dB,1.95528439956366e+001°)
8.51138038202371e+003	(-5.84094627800902e-001dB,1.91005623784869e+001°)
8.70963589956075e+003	(-5.61696483002066e-001dB,1.86553892050256e+001°)
8.91250938133740e+003	(-5.40206632600806e-001dB,1.82172640024745e+001°)
9.12010839355904e+003	(-5.19593121895647e-001dB,1.77861208211242e+001°)
9.33254300796985e+003	(-4.99824815964312e-001dB,1.73618885879212e+001°)
9.54992586021430e+003	(-4.80871406873150e-001dB,1.69444914504376e+001°)
9.77237220955804e+003	(-4.62703418165667e-001dB,1.65338491104978e+001°)
9.99999999999993e+003	(-4.45292206834977e-001dB,1.61298771468638e+001°)
1.02329299228075e+004	(-4.28609962977755e-001dB,1.57324873264957e+001°)
1.04712854805089e+004	(-4.12629707323412e-001dB,1.53415879040107e+001°)
1.07151930523760e+004	(-3.97325286826420e-001dB,1.49570839090689e+001°)
1.09647819614318e+004	(-3.82671368502751e-001dB,1.45788774214966e+001°)
1.12201845430196e+004	(-3.68643431683797e-001dB,1.42068678340470e+001°)
1.14815362149688e+004	(-3.55217758853825e-001dB,1.38409521027678e+001°)
1.17489755493952e+004	(-3.42371425229276e-001dB,1.34810249850162e+001°)
1.20226443461740e+004	(-3.30082287228627e-001dB,1.31269792652200e+001°)
1.23026877081237e+004	(-3.18328969975584e-001dB,1.27787059685258e+001°)
1.25892541179416e+004	(-3.07090853966843e-001dB,1.24360945625422e+001°)
1.28824955169313e+004	(-2.96348061030721e-001dB,1.20990331473986e+001°)
1.31825673855640e+004	(-2.86081439691799e-001dB,1.17674086343984e+001°)
1.34896288259164e+004	(-2.76272550050975e-001dB,1.14411069135565e+001°)
1.38038426460288e+004	(-2.66903648280850e-001dB,1.11200130103347e+001°)
1.41253754462274e+004	(-2.57957670830114e-001dB,1.08040112319282e+001°)
1.44543977074592e+004	(-2.49418218422248e-001dB,1.04929853034389e+001°)
1.47910838816820e+004	(-2.41269539927530e-001dB,1.01868184943054e+001°)
1.51356124843620e+004	(-2.33496516181068e-001dB,9.88539373536516e+000°)
1.54881661891247e+004	(-2.26084643811713e-001dB,9.58859372691287e+000°)
1.58489319246110e+004	(-2.19020019142710e-001dB,9.29630103814575e+000°)
1.62181009735892e+004	(-2.12289322218336e-001dB,9.00839819836137e+000°)
1.65958690743755e+004	(-2.05879801004629e-001dB,8.72476778029162e+000°)
1.69824365246173e+004	(-1.99779255809692e-001dB,8.44529247594044e+000°)
1.73780082874936e+004	(-1.93976023961810e-001dB,8.16985516528721e+000°)
1.77827941003891e+004	(-1.88458964781577e-001dB,7.89833897822645e+000°)
1.81970085860997e+004	(-1.83217444878559e-001dB,7.63062735008123e+000°)
1.86208713666285e+004	(-1.78241323800289e-001dB,7.36660407104108e+000°)
1.90546071796323e+004	(-1.73520940058509e-001dB,7.10615332985936e+000°)
1.94984459975803e+004	(-1.69047097552192e-001dB,6.84915975212678e+000°)
1.99526231496887e+004	(-1.64811052407704e-001dB,6.59550843344133e+000°)
2.04173794466951e+004	(-1.60804500250074e-001dB,6.34508496777321e+000°)
2.08929613085402e+004	(-1.57019563919980e-001dB,6.09777547132045e+000°)
2.13796208950222e+004	(-1.53448781647060e-001dB,5.85346660213697e+000°)
2.18776162394954e+004	(-1.50085095689443e-001dB,5.61204557579777e+000°)
2.23872113856832e+004	(-1.46921841447090e-001dB,5.37340017737977e+000°)
2.29086765276776e+004	(-1.43952737055154e-001dB,5.13741876998187e+000°)
2.34422881531990e+004	(-1.41171873462399e-001dB,4.90399030005377e+000°)
2.39883291901947e+004	(-1.38573704998065e-001dB,4.67300429973992e+000°)
2.45470891568501e+004	(-1.36153040430685e-001dB,4.44435088648405e+000°)
2.51188643150956e+004	(-1.33905034519821e-001dB,4.21792076008006e+000°)
2.57039578276884e+004	(-1.31825180062389e-001dB,3.99360519739428e+000°)
2.63026799189536e+004	(-1.29909300433928e-001dB,3.77129604495233e+000°)
2.69153480392689e+004	(-1.28153542624586e-001dB,3.55088570956298e+000°)
2.75422870333814e+004	(-1.26554370769456e-001dB,3.33226714717804e+000°)
2.81838293126443e+004	(-1.25108560172503e-001dB,3.11533385015513e+000°)
2.88403150312658e+004	(-1.23813191822754e-001dB,2.89997983308891e+000°)
2.95120922666636e+004	(-1.22665647401812e-001dB,2.68609961737220e+000°)
3.01995172040199e+004	(-1.21663604780398e-001dB,2.47358821464938e+000°)
3.09029543251357e+004	(-1.20805034004040e-001dB,2.26234110931204e+000°)
3.16227766016835e+004	(-1.20088193764616e-001dB,2.05225424017505e+000°)
3.23593656929626e+004	(-1.19511628357567e-001dB,1.84322398149238e+000°)
3.31131121482588e+004	(-1.19074165122295e-001dB,1.63514712344149e+000°)
3.38844156139200e+004	(-1.18774912365673e-001dB,1.42792085221844e+000°)
3.46736850452529e+004	(-1.18613257766112e-001dB,1.22144272988230e+000°)
3.54813389233573e+004	(-1.18588867257935e-001dB,1.01561067407207e+000°)
3.63078054770098e+004	(-1.18701684395007e-001dB,8.10322937749568e-001°)
3.71535229097169e+004	(-1.18951930192634e-001dB,6.05478089071364e-001°)
3.80189396320558e+004	(-1.19340103446763e-001dB,4.00974991561079e-001°)
3.89045144994277e+004	(-1.19866981531211e-001dB,1.96712784666601e-001°)
3.98107170553494e+004	(-1.20533621671166e-001dB,-7.40913511365211e-003°)
4.07380277804109e+004	(-1.21341362693516e-001dB,-2.11491132435991e-001°)
4.16869383470332e+004	(-1.22291827253719e-001dB,-4.15633350499731e-001°)
4.26579518801589e+004	(-1.23386924539820e-001dB,-6.19935727471121e-001°)
4.36515832240162e+004	(-1.24628853452054e-001dB,-8.24498011803395e-001°)
4.46683592150959e+004	(-1.26020106260267e-001dB,-1.02941977632805e+000°)
4.57088189614871e+004	(-1.27563472737137e-001dB,-1.23480043091476e+000°)
4.67735141287194e+004	(-1.29262044768792e-001dB,-1.44073923360007e+000°)
4.78630092322634e+004	(-1.31119221441299e-001dB,-1.64733529999929e+000°)
4.89778819368442e+004	(-1.33138714603688e-001dB,-1.85468761081647e+000°)
5.01187233627268e+004	(-1.35324554906250e-001dB,-2.06289501732706e+000°)
5.12861383991360e+004	(-1.37681098313159e-001dB,-2.27205624459966e+000°)
5.24807460249768e+004	(-1.40213033088072e-001dB,-2.48226989230992e+000°)
5.37031796370248e+004	(-1.42925387250631e-001dB,-2.69363443294088e+000°)
5.49540873857620e+004	(-1.45823536501192e-001dB,-2.90624820715745e+000°)
5.62341325190344e+004	(-1.48913212610569e-001dB,-3.12020941615946e+000°)
5.75439937337152e+004	(-1.52200512269601e-001dB,-3.33561611077630e+000°)
