Freq.	V(out)
Step Information: Run=1  (Run: 1/100)
5.00000000000000e+000	(-2.47522467731817e+000dB,-1.51745075429394e+002°)
6.29462705897084e+000	(2.77634546175026e+000dB,-1.63126813257498e+002°)
7.92446596230557e+000	(7.69095820453606e+000dB,-1.77056632025600e+002°)
9.97631157484440e+000	(1.21484472538988e+001dB,1.66670588884920e+002°)
1.25594321575479e+001	(1.60328087851886e+001dB,1.48575391024978e+002°)
1.58113883008419e+001	(1.92607176744865e+001dB,1.29496747709293e+002°)
1.99053585276749e+001	(2.18081805817868e+001dB,1.10459194999135e+002°)
2.50593616813636e+001	(2.37188458025086e+001dB,9.24413408783845e+001°)
3.15478672240097e+001	(2.50880064760651e+001dB,7.61653660308457e+001°)
3.97164117362141e+001	(2.60330938602754e+001dB,6.20084746739968e+001°)
5.00000000000000e+001	(2.66671141078108e+001dB,5.00407798746714e+001°)
6.29462705897084e+001	(2.70838137691706e+001dB,4.01258334039640e+001°)
7.92446596230557e+001	(2.73538333548896e+001dB,3.20214545394031e+001°)
9.97631157484440e+001	(2.75271495144377e+001dB,2.54521008780869e+001°)
1.25594321575479e+002	(2.76376936079939e+001dB,2.01506055024044e+001°)
1.58113883008419e+002	(2.77078956885177e+001dB,1.58775869460640e+001°)
1.99053585276749e+002	(2.77523272391689e+001dB,1.24275108313198e+001°)
2.50593616813636e+002	(2.77803441756522e+001dB,9.62784658830218e+000°)
3.15478672240097e+002	(2.77978997671789e+001dB,7.33516931890212e+000°)
3.97164117362141e+002	(2.78087457128055e+001dB,5.43024863664864e+000°)
5.00000000000000e+002	(2.78152081073743e+001dB,3.81309278511391e+000°)
6.29462705897084e+002	(2.78186759872565e+001dB,2.39833580624371e+000°)
7.92446596230557e+002	(2.78198958371387e+001dB,1.11106271801134e+000°)
9.97631157484441e+002	(2.78191308520243e+001dB,-1.16969492121633e-001°)
1.25594321575479e+003	(2.78162176469658e+001dB,-1.35081326520361e+000°)
1.58113883008419e+003	(2.78105325616121e+001dB,-2.65562468301269e+000°)
1.99053585276749e+003	(2.78008616946518e+001dB,-4.09986308505730e+000°)
2.50593616813636e+003	(2.77851507585837e+001dB,-5.75843695733035e+000°)
3.15478672240097e+003	(2.77600912154705e+001dB,-7.71572971662292e+000°)
3.97164117362141e+003	(2.77204788814871e+001dB,-1.00682321186491e+001°)
5.00000000000001e+003	(2.76582674709092e+001dB,-1.29261307737789e+001°)
6.29462705897085e+003	(2.75612537590703e+001dB,-1.64125714287224e+001°)
7.92446596230558e+003	(2.74114212894056e+001dB,-2.06584168342079e+001°)
9.97631157484441e+003	(2.71832182621857e+001dB,-2.57894543102272e+001°)
1.25594321575479e+004	(2.68425299070516e+001dB,-3.19032878390911e+001°)
1.58113883008419e+004	(2.63477225300664e+001dB,-3.90368584076419e+001°)
1.99053585276749e+004	(2.56542677492602e+001dB,-4.71346962809184e+001°)
2.50593616813637e+004	(2.47229705904204e+001dB,-5.60389503980850e+001°)
3.15478672240097e+004	(2.35285054960227e+001dB,-6.55208168712966e+001°)
3.97164117362142e+004	(2.20626388433929e+001dB,-7.53470379076355e+001°)
5.00000000000001e+004	(2.03291530440715e+001dB,-8.53418747299134e+001°)
6.29462705897085e+004	(1.83338550861694e+001dB,-9.54024198394553e+001°)
7.92446596230558e+004	(1.60768448149436e+001dB,-1.05459680544186e+002°)
9.97631157484442e+004	(1.35523468001600e+001dB,-1.15416102502953e+002°)
1.25594321575479e+005	(1.07562110590913e+001dB,-1.25105203293493e+002°)
1.58113883008419e+005	(7.69593187682398e+000dB,-1.34305053018311e+002°)
1.99053585276749e+005	(4.39597551012901e+000dB,-1.42799654019040e+002°)
2.50593616813637e+005	(8.94799771454544e-001dB,-1.50446862136971e+002°)
3.15478672240097e+005	(-2.76366280555987e+000dB,-1.57212427710352e+002°)
3.97164117362142e+005	(-6.53844617723524e+000dB,-1.63162507668839e+002°)
5.00000000000000e+005	(-1.03965114252073e+001dB,-1.68433754595972e+002°)
Step Information: Run=2  (Run: 2/100)
5.00000000000000e+000	(-4.79612010766971e+000dB,-1.48939472806812e+002°)
6.29462705897084e+000	(5.38950742196687e-001dB,-1.59420603114853e+002°)
7.92446596230557e+000	(5.57464111568092e+000dB,-1.72477332661500e+002°)
9.97631157484440e+000	(1.01935393450777e+001dB,1.72011752482132e+002°)
1.25594321575479e+001	(1.42751007478962e+001dB,1.54460593097058e+002°)
1.58113883008419e+001	(1.77216726841029e+001dB,1.35614908353670e+002°)
1.99053585276749e+001	(2.04877151968671e+001dB,1.16464583925460e+002°)
2.50593616813636e+001	(2.25955937794038e+001dB,9.80328899552747e+001°)
3.15478672240097e+001	(2.41269531581868e+001dB,8.11438194389803e+001°)
3.97164117362141e+001	(2.51955817251131e+001dB,6.62881481466446e+001°)
5.00000000000000e+001	(2.59182987098197e+001dB,5.36259248368468e+001°)
6.29462705897084e+001	(2.63960064562226e+001dB,4.30753191382459e+001°)
7.92446596230557e+001	(2.67067598874898e+001dB,3.44185533870708e+001°)
9.97631157484440e+001	(2.69067353288137e+001dB,2.73847530015945e+001°)
1.25594321575479e+002	(2.70344996246205e+001dB,2.17008922181400e+001°)
1.58113883008419e+002	(2.71157305823657e+001dB,1.71173105886891e+001°)
1.99053585276749e+002	(2.71671871496302e+001dB,1.34171985127370e+001°)
2.50593616813636e+002	(2.71996630661401e+001dB,1.04174170336346e+001°)
3.15478672240097e+002	(2.72200423884016e+001dB,7.96526335841373e+000°)
3.97164117362141e+002	(2.72326735973543e+001dB,5.93371282032761e+000°)
5.00000000000000e+002	(2.72402630465335e+001dB,4.21638261203038e+000°)
6.29462705897084e+002	(2.72444410154796e+001dB,2.72274973212886e+000°)
7.92446596230557e+002	(2.72461064553085e+001dB,1.37378847832843e+000°)
9.97631157484441e+002	(2.72456184305398e+001dB,9.80166748186591e-002°)
1.25594321575479e+003	(2.72428732399431e+001dB,-1.17213553697474e+000°)
1.58113883008419e+003	(2.72372835144001e+001dB,-2.50374167317571e+000°)
1.99053585276749e+003	(2.72276561069412e+001dB,-3.96667270095338e+000°)
2.50593616813636e+003	(2.72119465792790e+001dB,-5.63681069590604e+000°)
3.15478672240097e+003	(2.71868478758246e+001dB,-7.59911618400810e+000°)
3.97164117362141e+003	(2.71471502659160e+001dB,-9.95027379161591e+000°)
5.00000000000001e+003	(2.70847961253110e+001dB,-1.28002600695851e+001°)
6.29462705897085e+003	(2.69875682944575e+001dB,-1.62715424817046e+001°)
7.92446596230558e+003	(2.68374432500327e+001dB,-2.04937183758827e+001°)
9.97631157484441e+003	(2.66088930526088e+001dB,-2.55905492260678e+001°)
1.25594321575479e+004	(2.62679094082824e+001dB,-3.16566688093924e+001°)
1.58113883008419e+004	(2.57731397652227e+001dB,-3.87250486376440e+001°)
1.99053585276749e+004	(2.50806399354705e+001dB,-4.67355807454409e+001°)
2.50593616813637e+004	(2.41522256738003e+001dB,-5.55260735482794e+001°)
3.15478672240097e+004	(2.29640580031771e+001dB,-6.48652660849286e+001°)
3.97164117362142e+004	(2.15097952853915e+001dB,-7.45212099273772e+001°)
5.00000000000001e+004	(1.97953169631233e+001dB,-8.43251908136710e+001°)
6.29462705897085e+004	(1.78283406482014e+001dB,-9.41889492995109e+001°)
7.92446596230558e+004	(1.56099791925443e+001dB,-1.04066630925757e+002°)
9.97631157484442e+004	(1.31335997794255e+001dB,-1.13889527308507e+002°)
1.25594321575479e+005	(1.03916691468685e+001dB,-1.23517143252916e+002°)
1.58113883008419e+005	(7.38630474296146e+000dB,-1.32739159471903e+002°)
1.99053585276749e+005	(4.13644432719967e+000dB,-1.41330648597836e+002°)
2.50593616813637e+005	(6.76827512605115e-001dB,-1.49124755368502e+002°)
3.15478672240097e+005	(-2.94977429444073e+000dB,-1.56058220493209e+002°)
3.97164117362142e+005	(-6.70156913631795e+000dB,-1.62173420230014e+002°)
5.00000000000000e+005	(-1.05437529667989e+001dB,-1.67591927655238e+002°)
Step Information: Run=3  (Run: 3/100)
5.00000000000000e+000	(-2.64505274256984e+000dB,-1.51678386730591e+002°)
6.29462705897084e+000	(2.60839579549079e+000dB,-1.63064429381187e+002°)
7.92446596230557e+000	(7.52508965476030e+000dB,-1.77001273537399e+002°)
9.97631157484440e+000	(1.19845753445033e+001dB,1.66714438863542e+002°)
1.25594321575479e+001	(1.58703663445933e+001dB,1.48602972241688e+002°)
1.58113883008419e+001	(1.90986725971314e+001dB,1.29505472973689e+002°)
1.99053585276749e+001	(2.16453584020102e+001dB,1.10450478240286e+002°)
2.50593616813636e+001	(2.35543647952827e+001dB,9.24202282010726e+001°)
3.15478672240097e+001	(2.49215095410528e+001dB,7.61383365517088e+001°)
3.97164117362141e+001	(2.58646811264444e+001dB,6.19812434675271e+001°)
5.00000000000000e+001	(2.64971291056738e+001dB,5.00173042412383e+001°)
6.29462705897084e+001	(2.69126543836004e+001dB,4.01084081862568e+001°)
7.92446596230557e+001	(2.71818492645703e+001dB,3.20112667201073e+001°)
9.97631157484440e+001	(2.73546098190367e+001dB,2.54497937153581e+001°)
1.25594321575479e+002	(2.74647909280404e+001dB,2.01566945809250e+001°)
1.58113883008419e+002	(2.75347628946619e+001dB,1.58927313171982e+001°)
1.99053585276749e+002	(2.75790552873921e+001dB,1.24526893984602e+001°)
2.50593616813636e+002	(2.76069971634973e+001dB,9.66448757742682e+000°)
3.15478672240097e+002	(2.76245268777529e+001dB,7.38526702708532e+000°)
3.97164117362141e+002	(2.76353910573308e+001dB,5.49649013288266e+000°)
5.00000000000000e+002	(2.76419199267349e+001dB,3.89901025458741e+000°)
6.29462705897084e+002	(2.76455169178718e+001dB,2.50849684422636e+000°)
7.92446596230557e+002	(2.76469563259683e+001dB,1.25130967439430e+000°)
9.97631157484441e+002	(2.76465485215770e+001dB,6.07796746905698e-002°)
1.25594321575479e+003	(2.76442066473427e+001dB,-1.12620255961719e+000°)
1.58113883008419e+003	(2.76394289261955e+001dB,-2.37240403292954e+000°)
1.99053585276749e+003	(2.76311937104702e+001dB,-3.74337357191595e+000°)
2.50593616813636e+003	(2.76177476182327e+001dB,-5.31053410324197e+000°)
3.15478672240097e+003	(2.75962486861521e+001dB,-7.15421948496337e+000°)
3.97164117362141e+003	(2.75622063285143e+001dB,-9.36646675372167e+000°)
5.00000000000001e+003	(2.75086424823645e+001dB,-1.20530658731751e+001°)
6.29462705897085e+003	(2.74248989107165e+001dB,-1.53338335343553e+001°)
7.92446596230558e+003	(2.72950715561807e+001dB,-1.93392593956853e+001°)
9.97631157484441e+003	(2.70962352721272e+001dB,-2.42007205240988e+001°)
1.25594321575479e+004	(2.67970211775879e+001dB,-3.00311355975573e+001°)
1.58113883008419e+004	(2.63577156891958e+001dB,-3.68951264044794e+001°)
1.99053585276749e+004	(2.57334623180070e+001dB,-4.47749672846516e+001°)
2.50593616813637e+004	(2.48813456844457e+001dB,-5.35499511793211e+001°)
3.15478672240097e+004	(2.37693228338298e+001dB,-6.30116119631861e+001°)
3.97164117362142e+004	(2.23818159471766e+001dB,-7.29197034079759e+001°)
5.00000000000001e+004	(2.07175130975736e+001dB,-8.30689967379432e+001°)
6.29462705897085e+004	(1.87806676394657e+001dB,-9.33209569304967e+001°)
7.92446596230558e+004	(1.65725432986503e+001dB,-1.03579879676537e+002°)
9.97631157484442e+004	(1.40894293645598e+001dB,-1.13735759721092e+002°)
1.25594321575479e+005	(1.13286703387609e+001dB,-1.23620060570984e+002°)
1.58113883008419e+005	(8.29823818670067e+000dB,-1.33011576101435e+002°)
1.99053585276749e+005	(5.02252109367038e+000dB,-1.41692361361833e+002°)
2.50593616813637e+005	(1.54004150986696e+000dB,-1.49515112755800e+002°)
3.15478672240097e+005	(-2.10472833387278e+000dB,-1.56439830660326e+002°)
3.97164117362142e+005	(-5.86991533735294e+000dB,-1.62528790212299e+002°)
5.00000000000000e+005	(-9.72147782967937e+000dB,-1.67917380842534e+002°)
Step Information: Run=4  (Run: 4/100)
5.00000000000000e+000	(-3.10480971461001e+000dB,-1.55217931824411e+002°)
6.29462705897084e+000	(2.07901110613517e+000dB,-1.66828987834737e+002°)
7.92446596230557e+000	(6.90643816489197e+000dB,1.78973629117992e+002°)
9.97631157484440e+000	(1.12546785808262e+001dB,1.62461529154717e+002°)
1.25594321575479e+001	(1.50106136014549e+001dB,1.44231589029605e+002°)
1.58113883008419e+001	(1.81002234460169e+001dB,1.25183972248010e+002°)
1.99053585276749e+001	(2.05128338084156e+001dB,1.06362374349983e+002°)
2.50593616813636e+001	(2.23044044023272e+001dB,8.87146850043388e+001°)
3.15478672240097e+001	(2.35773299126821e+001dB,7.29007775738180e+001°)
3.97164117362141e+001	(2.44501176054369e+001dB,5.92325758902118e+001°)
5.00000000000000e+001	(2.50327504485946e+001dB,4.77313844668317e+001°)
6.29462705897084e+001	(2.54143525932214e+001dB,3.82332139580402e+001°)
7.92446596230557e+001	(2.56610487515640e+001dB,3.04854045505107e+001°)
9.97631157484440e+001	(2.58191460887739e+001dB,2.42125302545392e+001°)
1.25594321575479e+002	(2.59198760111303e+001dB,1.91528503952508e+001°)
1.58113883008419e+002	(2.59837944204088e+001dB,1.50743556919718e+001°)
1.99053585276749e+002	(2.60242166984615e+001dB,1.17790075067013e+001°)
2.50593616813636e+002	(2.60496740397115e+001dB,9.10104624357174e+000°)
3.15478672240097e+002	(2.60655836217238e+001dB,6.90278176201986e+000°)
3.97164117362141e+002	(2.60753484378722e+001dB,5.06963560631450e+000°)
5.00000000000000e+002	(2.60810638738185e+001dB,3.50525219168307e+000°)
6.29462705897084e+002	(2.60839588398584e+001dB,2.12698912564388e+000°)
7.92446596230557e+002	(2.60846567128105e+001dB,8.61844941666495e-001°)
9.97631157484441e+002	(2.60833085286904e+001dB,-3.57232720085220e-001°)
1.25594321575479e+003	(2.60796259447832e+001dB,-1.59475915099193e+000°)
1.58113883008419e+003	(2.60728214076945e+001dB,-2.91594876145112e+000°)
1.99053585276749e+003	(2.60614447659685e+001dB,-4.38985105661300e+000°)
2.50593616813636e+003	(2.60430869225297e+001dB,-6.09239313594860e+000°)
3.15478672240097e+003	(2.60139011430329e+001dB,-8.10919732095043e+000°)
3.97164117362141e+003	(2.59678740167817e+001dB,-1.05377818647170e+001°)
5.00000000000001e+003	(2.58957721774361e+001dB,-1.34882913720570e+001°)
6.29462705897085e+003	(2.57837276026098e+001dB,-1.70811698105240e+001°)
7.92446596230558e+003	(2.56115649058927e+001dB,-2.14392474963538e+001°)
9.97631157484441e+003	(2.53513088251845e+001dB,-2.66711048549273e+001°)
1.25594321575479e+004	(2.49668800637456e+001dB,-3.28438570363492e+001°)
1.58113883008419e+004	(2.44165370353188e+001dB,-3.99492320714740e+001°)
1.99053585276749e+004	(2.36592848196551e+001dB,-4.78777650080794e+001°)
2.50593616813637e+004	(2.26641844609439e+001dB,-5.64246219655847e+001°)
3.15478672240097e+004	(2.14179858167330e+001dB,-6.53407370264747e+001°)
3.97164117362142e+004	(1.99255766336034e+001dB,-7.44105128739716e+001°)
5.00000000000001e+004	(1.82020694247169e+001dB,-8.35111583163872e+001°)
6.29462705897085e+004	(1.62612124261061e+001dB,-9.26197122358183e+001°)
7.92446596230558e+004	(1.41065264142683e+001dB,-1.01768720713279e+002°)
9.97631157484442e+004	(1.17291564470266e+001dB,-1.10976425447780e+002°)
1.25594321575479e+005	(9.11325586066713e+000dB,-1.20184442025028e+002°)
1.58113883008419e+005	(6.24672198761064e+000dB,-1.29234298007644e+002°)
1.99053585276749e+005	(3.13194051741969e+000dB,-1.37900194229291e+002°)
2.50593616813637e+005	(-2.09778891122814e-001dB,-1.45962987030076e+002°)
3.15478672240097e+005	(-3.74242521604723e+000dB,-1.53281720617711e+002°)
3.97164117362142e+005	(-7.42452198254732e+000dB,-1.59825947749359e+002°)
5.00000000000000e+005	(-1.12176999485249e+001dB,-1.65666113273594e+002°)
Step Information: Run=5  (Run: 5/100)
5.00000000000000e+000	(-5.25538212835718e+000dB,-1.52192041956301e+002°)
6.29462705897084e+000	(7.96707175881703e-003dB,-1.63144645963018e+002°)
7.92446596230557e+000	(4.94620242608796e+000dB,-1.76697364066133e+002°)
9.97631157484440e+000	(9.43844683937170e+000dB,1.67341963599788e+002°)
1.25594321575479e+001	(1.33665613481010e+001dB,1.49476033444349e+002°)
1.58113883008419e+001	(1.66431236481924e+001dB,1.30529921749537e+002°)
1.99053585276749e+001	(1.92388136623843e+001dB,1.11528110360989e+002°)
2.50593616813636e+001	(2.11924646266525e+001dB,9.34661265297476e+001°)
3.15478672240097e+001	(2.25965546070017e+001dB,7.70936472101153e+001°)
3.97164117362141e+001	(2.35679772669828e+001dB,6.28156785674707e+001°)
5.00000000000000e+001	(2.42207589451431e+001dB,5.07234261134217e+001°)
6.29462705897084e+001	(2.46502921746619e+001dB,4.06931441843078e+001°)
7.92446596230557e+001	(2.49288486901041e+001dB,3.24885958920658e+001°)
9.97631157484440e+001	(2.51077391938140e+001dB,2.58358954013182e+001°)
1.25594321575479e+002	(2.52218800546779e+001dB,2.04672796851204e+001°)
1.58113883008419e+002	(2.52943865340749e+001dB,1.61418356348919e+001°)
1.99053585276749e+002	(2.53402900978133e+001dB,1.26522999258608e+001°)
2.50593616813636e+002	(2.53692492033457e+001dB,9.82458601814924e+000°)
3.15478672240097e+002	(2.53874143626340e+001dB,7.51405244539378e+000°)
3.97164117362141e+002	(2.53986663902131e+001dB,5.60065751193096e+000°)
5.00000000000000e+002	(2.54054180435666e+001dB,3.98402727673220e+000°)
6.29462705897084e+002	(2.54091203848183e+001dB,2.57885596154316e+000°)
7.92446596230557e+002	(2.54105703047109e+001dB,1.31075009116890e+000°)
9.97631157484441e+002	(2.54100804812719e+001dB,1.12482682290825e-001°)
1.25594321575479e+003	(2.54075466094609e+001dB,-1.07943634850457e+000°)
1.58113883008419e+003	(2.54024261745566e+001dB,-2.32798231971884e+000°)
1.99053585276749e+003	(2.53936253423011e+001dB,-3.69872450676108e+000°)
2.50593616813636e+003	(2.53792731118020e+001dB,-5.26286925461642e+000°)
3.15478672240097e+003	(2.53563430324919e+001dB,-7.10018867930665e+000°)
3.97164117362141e+003	(2.53200629958754e+001dB,-9.30159904872662e+000°)
5.00000000000001e+003	(2.52630388059846e+001dB,-1.19708091101160e+001°)
6.29462705897085e+003	(2.51740259440353e+001dB,-1.52238749861405e+001°)
7.92446596230558e+003	(2.50363593435314e+001dB,-1.91846406150600e+001°)
9.97631157484441e+003	(2.48262708280884e+001dB,-2.39731400034206e+001°)
1.25594321575479e+004	(2.45117734102399e+001dB,-2.96840404045463e+001°)
1.58113883008419e+004	(2.40534152382643e+001dB,-3.63552429412001e+001°)
1.99053585276749e+004	(2.34084853768827e+001dB,-4.39351629779273e+001°)
2.50593616813637e+004	(2.25390863316654e+001dB,-5.22687324520195e+001°)
3.15478672240097e+004	(2.14213334598143e+001dB,-6.11241520845678e+001°)
3.97164117362142e+004	(2.00500758617149e+001dB,-7.02604807561857e+001°)
5.00000000000001e+004	(1.84351068796244e+001dB,-7.95014705828412e+001°)
6.29462705897085e+004	(1.65907371019896e+001dB,-8.87707394998031e+001°)
7.92446596230558e+004	(1.45250193267033e+001dB,-9.80702719220083e+001°)
9.97631157484442e+004	(1.22343214933318e+001dB,-1.07418555243241e+002°)
1.25594321575479e+005	(9.70566733270083e+000dB,-1.16781490240979e+002°)
1.58113883008419e+005	(6.92583183180330e+000dB,-1.26031356808242e+002°)
1.99053585276749e+005	(3.89270720768826e+000dB,-1.34959375185640e+002°)
2.50593616813637e+005	(6.22321065605953e-001dB,-1.43339035726352e+002°)
3.15478672240097e+005	(-2.85270161807960e+000dB,-1.51002844031714e+002°)
3.97164117362142e+005	(-6.49135861227162e+000dB,-1.57888893280616e+002°)
5.00000000000000e+005	(-1.02535350230261e+001dB,-1.64042862082964e+002°)
Step Information: Run=6  (Run: 6/100)
5.00000000000000e+000	(-3.24002980145171e+000dB,-1.54173116689389e+002°)
6.29462705897084e+000	(1.96508073293582e+000dB,-1.65699496309301e+002°)
7.92446596230557e+000	(6.82011583561596e+000dB,-1.79802826289340e+002°)
9.97631157484440e+000	(1.12030450380796e+001dB,1.63767621533253e+002°)
1.25594321575479e+001	(1.49997445299139e+001dB,1.45584748075502e+002°)
1.58113883008419e+001	(1.81331434104742e+001dB,1.26529813063225e+002°)
1.99053585276749e+001	(2.05882811604617e+001dB,1.07641291156956e+002°)
2.50593616813636e+001	(2.24172311590020e+001dB,8.98777399388618e+001°)
3.15478672240097e+001	(2.37202182909068e+001dB,7.39193734922803e+001°)
3.97164117362141e+001	(2.46154974288443e+001dB,6.00989236158268e+001°)
5.00000000000000e+001	(2.52140641725082e+001dB,4.84529920414091e+001°)
6.29462705897084e+001	(2.56065233996824e+001dB,3.88260985304980e+001°)
7.92446596230557e+001	(2.58604229628451e+001dB,3.09687686375115e+001°)
9.97631157484440e+001	(2.60232162792149e+001dB,2.46055132067605e+001°)
1.25594321575479e+002	(2.61269738025756e+001dB,1.94729350706294e+001°)
1.58113883008419e+002	(2.61928322143126e+001dB,1.53368159947153e+001°)
1.99053585276749e+002	(2.62344958414483e+001dB,1.19969174507917e+001°)
2.50593616813636e+002	(2.62607517373088e+001dB,9.28555247087340e+000°)
3.15478672240097e+002	(2.62771845775719e+001dB,7.06347775656530e+000°)
3.97164117362141e+002	(2.62873083430257e+001dB,5.21495986930536e+000°)
