Freq.	V(output)/V(input)
1.00000000000000e+002	(1.99979526720778e+001dB,1.79831104958024e+002°)
1.25892541179417e+002	(1.99979326571880e+001dB,1.79787374050237e+002°)
1.58489319246111e+002	(1.99979009359136e+001dB,1.79732320408148e+002°)
1.99526231496888e+002	(1.99978506615555e+001dB,1.79663012595705e+002°)
2.51188643150958e+002	(1.99977709832568e+001dB,1.79575760459565e+002°)
3.16227766016838e+002	(1.99976447046506e+001dB,1.79465918982588e+002°)
3.98107170553497e+002	(1.99974445740503e+001dB,1.79327641652943e+002°)
5.01187233627272e+002	(1.99971274072696e+001dB,1.79153570578666e+002°)
6.30957344480193e+002	(1.99966247791265e+001dB,1.78934447570126e+002°)
7.94328234724282e+002	(1.99958282860591e+001dB,1.78658626925135e+002°)
1.00000000000000e+003	(1.99945662280532e+001dB,1.78311466849470e+002°)
1.25892541179417e+003	(1.99925667500742e+001dB,1.77874572831727e+002°)
1.58489319246111e+003	(1.99893996710007e+001dB,1.77324864064083e+002°)
1.99526231496888e+003	(1.99843849038216e+001dB,1.76633435742586e+002°)
2.51188643150958e+003	(1.99764488474823e+001dB,1.75764201181051e+002°)
3.16227766016838e+003	(1.99639006054815e+001dB,1.74672328720703e+002°)
3.98107170553498e+003	(1.99440867752593e+001dB,1.73302559652222e+002°)
5.01187233627273e+003	(1.99128675316938e+001dB,1.71587641079381e+002°)
6.30957344480194e+003	(1.98638424262827e+001dB,1.69447391521838e+002°)
7.94328234724282e+003	(1.97872563001223e+001dB,1.66789418098452e+002°)
1.00000000000000e+004	(1.96685693294352e+001dB,1.63513282186436e+002°)
1.25892541179417e+004	(1.94868490810860e+001dB,1.59520843628046e+002°)
1.58489319246111e+004	(1.92135282250920e+001dB,1.54735909561871e+002°)
1.99526231496888e+004	(1.88126805969691e+001dB,1.49134374698615e+002°)
2.51188643150958e+004	(1.82444504827703e+001dB,1.42779181680197e+002°)
3.16227766016838e+004	(1.74726488937222e+001dB,1.35842840548886e+002°)
3.98107170553498e+004	(1.64748773711585e+001dB,1.28593432330659e+002°)
5.01187233627273e+004	(1.52501577941213e+001dB,1.21334161896049e+002°)
6.30957344480194e+004	(1.38189974318863e+001dB,1.14320089375017e+002°)
7.94328234724283e+004	(1.22157427117196e+001dB,1.07695400076569e+002°)
1.00000000000000e+005	(1.04781296910800e+001dB,1.01476227469069e+002°)
1.25892541179417e+005	(8.63908903561710e+000dB,9.55703351679987e+001°)
1.58489319246112e+005	(6.72251205010903e+000dB,8.98099680547788e+001°)
1.99526231496888e+005	(4.74193644633668e+000dB,8.39808139358316e+001°)
2.51188643150958e+005	(2.70041793032991e+000dB,7.78423404785755e+001°)
3.16227766016838e+005	(5.90368557515526e-001dB,7.11429596447057e+001°)
3.98107170553498e+005	(-1.60705425137417e+000dB,6.36370715368220e+001°)
5.01187233627273e+005	(-3.92259222400885e+000dB,5.51120669228400e+001°)
6.30957344480194e+005	(-6.39823465771573e+000dB,4.54319777295001e+001°)
7.94328234724283e+005	(-9.08314887342742e+000dB,3.45986984362124e+001°)
1.00000000000000e+006	(-1.20242463426855e+001dB,2.28211207794516e+001°)
