Freq.	V(output)/V(input)
1.00000000000000e+004	(-1.99988909586541e+001dB,1.78853398521870e+002°)
1.02329299228075e+004	(-1.99988322546723e+001dB,1.78826687880562e+002°)
1.04712854805090e+004	(-1.99987707843815e+001dB,1.78799354863816e+002°)
1.07151930523761e+004	(-1.99987064174418e+001dB,1.78771384960002e+002°)
1.09647819614318e+004	(-1.99986390173709e+001dB,1.78742763318382e+002°)
1.12201845430196e+004	(-1.99985684412620e+001dB,1.78713474741139e+002°)
1.14815362149688e+004	(-1.99984945394733e+001dB,1.78683503675446e+002°)
1.17489755493953e+004	(-1.99984171553152e+001dB,1.78652834204713e+002°)
1.20226443461741e+004	(-1.99983361247189e+001dB,1.78621450040435e+002°)
1.23026877081238e+004	(-1.99982512758866e+001dB,1.78589334512918e+002°)
1.25892541179417e+004	(-1.99981624289316e+001dB,1.78556470562851e+002°)
1.28824955169313e+004	(-1.99980693954920e+001dB,1.78522840731915e+002°)
1.31825673855641e+004	(-1.99979719783380e+001dB,1.78488427152943e+002°)
1.34896288259165e+004	(-1.99978699709514e+001dB,1.78453211540958e+002°)
1.38038426460288e+004	(-1.99977631570850e+001dB,1.78417175182740e+002°)
1.41253754462275e+004	(-1.99976513103126e+001dB,1.78380298927483e+002°)
1.44543977074593e+004	(-1.99975341935438e+001dB,1.78342563175204e+002°)
1.47910838816821e+004	(-1.99974115585261e+001dB,1.78303947866995e+002°)
1.51356124843621e+004	(-1.99972831453163e+001dB,1.78264432474326e+002°)
1.54881661891248e+004	(-1.99971486817344e+001dB,1.78223995987172e+002°)
1.58489319246111e+004	(-1.99970078827849e+001dB,1.78182616903114e+002°)
1.62181009735893e+004	(-1.99968604500555e+001dB,1.78140273215372e+002°)
1.65958690743756e+004	(-1.99967060710885e+001dB,1.78096942400799e+002°)
1.69824365246174e+004	(-1.99965444187126e+001dB,1.78052601408311e+002°)
1.73780082874937e+004	(-1.99963751503617e+001dB,1.78007226644879e+002°)
1.77827941003892e+004	(-1.99961979073458e+001dB,1.77960793963983e+002°)
1.81970085860998e+004	(-1.99960123140861e+001dB,1.77913278652063e+002°)
1.86208713666287e+004	(-1.99958179773384e+001dB,1.77864655414054e+002°)
1.90546071796325e+004	(-1.99956144853501e+001dB,1.77814898360630e+002°)
1.94984459975804e+004	(-1.99954014069891e+001dB,1.77763980993662e+002°)
1.99526231496888e+004	(-1.99951782908429e+001dB,1.77711876191128e+002°)
2.04173794466953e+004	(-1.99949446642588e+001dB,1.77658556192529e+002°)
2.08929613085404e+004	(-1.99947000323509e+001dB,1.77603992583541e+002°)
2.13796208950223e+004	(-1.99944438769480e+001dB,1.77548156280269e+002°)
2.18776162394955e+004	(-1.99941756555156e+001dB,1.77491017513177e+002°)
2.23872113856834e+004	(-1.99938947999935e+001dB,1.77432545809729e+002°)
2.29086765276777e+004	(-1.99936007156176e+001dB,1.77372709978467e+002°)
2.34422881531992e+004	(-1.99932927796491e+001dB,1.77311478091196e+002°)
2.39883291901949e+004	(-1.99929703400701e+001dB,1.77248817464837e+002°)
2.45470891568503e+004	(-1.99926327142192e+001dB,1.77184694642950e+002°)
2.51188643150958e+004	(-1.99922791873348e+001dB,1.77119075377747e+002°)
2.57039578276886e+004	(-1.99919090110661e+001dB,1.77051924609334e+002°)
2.63026799189538e+004	(-1.99915214018947e+001dB,1.76983206447628e+002°)
2.69153480392691e+004	(-1.99911155394860e+001dB,1.76912884150141e+002°)
2.75422870333816e+004	(-1.99906905649725e+001dB,1.76840920102111e+002°)
2.81838293126445e+004	(-1.99902455791317e+001dB,1.76767275794303e+002°)
2.88403150312660e+004	(-1.99897796405066e+001dB,1.76691911802398e+002°)
2.95120922666638e+004	(-1.99892917634452e+001dB,1.76614787762392e+002°)
3.01995172040201e+004	(-1.99887809160077e+001dB,1.76535862347476e+002°)
3.09029543251359e+004	(-1.99882460178171e+001dB,1.76455093245970e+002°)
3.16227766016837e+004	(-1.99876859377805e+001dB,1.76372437133857e+002°)
3.23593656929628e+004	(-1.99870994917425e+001dB,1.76287849652266e+002°)
3.31131121482591e+004	(-1.99864854399991e+001dB,1.76201285378579e+002°)
3.38844156139202e+004	(-1.99858424846854e+001dB,1.76112697801368e+002°)
3.46736850452531e+004	(-1.99851692670848e+001dB,1.76022039292701e+002°)
3.54813389233575e+004	(-1.99844643647649e+001dB,1.75929261079378e+002°)
3.63078054770101e+004	(-1.99837262886597e+001dB,1.75834313213013e+002°)
3.71535229097172e+004	(-1.99829534798937e+001dB,1.75737144541293e+002°)
3.80189396320560e+004	(-1.99821443065977e+001dB,1.75637702674846e+002°)
3.89045144994280e+004	(-1.99812970604431e+001dB,1.75535933958876e+002°)
3.98107170553496e+004	(-1.99804099531712e+001dB,1.75431783435486e+002°)
4.07380277804112e+004	(-1.99794811127956e+001dB,1.75325194813793e+002°)
4.16869383470335e+004	(-1.99785085797578e+001dB,1.75216110432707e+002°)
4.26579518801592e+004	(-1.99774903028539e+001dB,1.75104471225036e+002°)
4.36515832240165e+004	(-1.99764241350012e+001dB,1.74990216680799e+002°)
4.46683592150962e+004	(-1.99753078287599e+001dB,1.74873284808615e+002°)
4.57088189614874e+004	(-1.99741390316845e+001dB,1.74753612096150e+002°)
4.67735141287197e+004	(-1.99729152815255e+001dB,1.74631133467609e+002°)
4.78630092322637e+004	(-1.99716340011010e+001dB,1.74505782242913e+002°)
4.89778819368445e+004	(-1.99702924929897e+001dB,1.74377490093912e+002°)
5.01187233627271e+004	(-1.99688879340120e+001dB,1.74246186998228e+002°)
5.12861383991363e+004	(-1.99674173694355e+001dB,1.74111801193237e+002°)
5.24807460249771e+004	(-1.99658777068682e+001dB,1.73974259125520e+002°)
5.37031796370251e+004	(-1.99642657099875e+001dB,1.73833485403345e+002°)
5.49540873857623e+004	(-1.99625779919532e+001dB,1.73689402742988e+002°)
5.62341325190347e+004	(-1.99608110084087e+001dB,1.73541931914944e+002°)
5.75439937337155e+004	(-1.99589610503819e+001dB,1.73390991688597e+002°)
5.88843655355587e+004	(-1.99570242366280e+001dB,1.73236498774037e+002°)
6.02559586074356e+004	(-1.99549965059610e+001dB,1.73078367760587e+002°)
6.16595001861480e+004	(-1.99528736088394e+001dB,1.72916511056356e+002°)
6.30957344480191e+004	(-1.99506510989614e+001dB,1.72750838820931e+002°)
6.45654229034654e+004	(-1.99483243242399e+001dB,1.72581258900946e+002°)
6.60693448007594e+004	(-1.99458884174730e+001dB,1.72407676757936e+002°)
6.76082975391980e+004	(-1.99433382867877e+001dB,1.72229995393067e+002°)
6.91830970918934e+004	(-1.99406686052166e+001dB,1.72048115275471e+002°)
7.07945784384136e+004	(-1.99378738003544e+001dB,1.71861934260972e+002°)
7.24435960074988e+004	(-1.99349480432279e+001dB,1.71671347508653e+002°)
7.41310241300915e+004	(-1.99318852368433e+001dB,1.71476247395649e+002°)
7.58577575029181e+004	(-1.99286790041999e+001dB,1.71276523426941e+002°)
7.76247116628689e+004	(-1.99253226758331e+001dB,1.71072062141676e+002°)
7.94328234724279e+004	(-1.99218092769064e+001dB,1.70862747013586e+002°)
8.12830516164096e+004	(-1.99181315134994e+001dB,1.70648458351362e+002°)
8.31763771102668e+004	(-1.99142817588254e+001dB,1.70429073186965e+002°)
8.51138038202373e+004	(-1.99102520384036e+001dB,1.70204465167405e+002°)
8.70963589956077e+004	(-1.99060340149130e+001dB,1.69974504433606e+002°)
8.91250938133742e+004	(-1.99016189724527e+001dB,1.69739057498232e+002°)
9.12010839355906e+004	(-1.98969978001828e+001dB,1.69497987115306e+002°)
9.33254300796988e+004	(-1.98921609750158e+001dB,1.69251152145885e+002°)
9.54992586021432e+004	(-1.98870985443787e+001dB,1.68998407409941e+002°)
9.77237220955807e+004	(-1.98818001075855e+001dB,1.68739603542034e+002°)
9.99999999999996e+004	(-1.98762547968599e+001dB,1.68474586829559e+002°)
1.02329299228075e+005	(-1.98704512578772e+001dB,1.68203199043948e+002°)
1.04712854805090e+005	(-1.98643776293060e+001dB,1.67925277269387e+002°)
1.07151930523760e+005	(-1.98580215216536e+001dB,1.67640653713994e+002°)
1.09647819614318e+005	(-1.98513699958498e+001dB,1.67349155512277e+002°)
1.12201845430196e+005	(-1.98444095407143e+001dB,1.67050604523578e+002°)
1.14815362149688e+005	(-1.98371260496084e+001dB,1.66744817109804e+002°)
1.17489755493952e+005	(-1.98295047973011e+001dB,1.66431603902723e+002°)
1.20226443461741e+005	(-1.98215304148877e+001dB,1.66110769560216e+002°)
1.23026877081238e+005	(-1.98131868650172e+001dB,1.65782112508809e+002°)
1.25892541179416e+005	(-1.98044574162306e+001dB,1.65445424665221e+002°)
1.28824955169313e+005	(-1.97953246169313e+001dB,1.65100491141576e+002°)
1.31825673855640e+005	(-1.97857702678325e+001dB,1.64747089942957e+002°)
1.34896288259165e+005	(-1.97757753954753e+001dB,1.64384991631206e+002°)
1.38038426460288e+005	(-1.97653202241571e+001dB,1.64013958971489e+002°)
1.41253754462275e+005	(-1.97543841479581e+001dB,1.63633746564837e+002°)
1.44543977074592e+005	(-1.97429457021929e+001dB,1.63244100447530e+002°)
1.47910838816820e+005	(-1.97309825356465e+001dB,1.62844757664062e+002°)
1.51356124843620e+005	(-1.97184713813770e+001dB,1.62435445819263e+002°)
1.54881661891247e+005	(-1.97053880291865e+001dB,1.62015882586128e+002°)
1.58489319246111e+005	(-1.96917072970583e+001dB,1.61585775201126e+002°)
1.62181009735892e+005	(-1.96774030045858e+001dB,1.61144819898416e+002°)
1.65958690743755e+005	(-1.96624479457778e+001dB,1.60692701330672e+002°)
1.69824365246174e+005	(-1.96468138640729e+001dB,1.60229091930842e+002°)
1.73780082874937e+005	(-1.96304714282134e+001dB,1.59753651231638e+002°)
1.77827941003891e+005	(-1.96133902107827e+001dB,1.59266025143539e+002°)
1.81970085860998e+005	(-1.95955386672009e+001dB,1.58765845178075e+002°)
1.86208713666286e+005	(-1.95768841202368e+001dB,1.58252727601679e+002°)
1.90546071796324e+005	(-1.95573927455695e+001dB,1.57726272551235e+002°)
1.94984459975804e+005	(-1.95370295630638e+001dB,1.57186063055757e+002°)
1.99526231496887e+005	(-1.95157584314626e+001dB,1.56631664015701e+002°)
2.04173794466952e+005	(-1.94935420513420e+001dB,1.56062621075724e+002°)
2.08929613085403e+005	(-1.94703419721826e+001dB,1.55478459438689e+002°)
2.13796208950222e+005	(-1.94461186091964e+001dB,1.54878682569888e+002°)
2.18776162394954e+005	(-1.94208312702834e+001dB,1.54262770817026e+002°)
2.23872113856833e+005	(-1.93944381921886e+001dB,1.53630179914753e+002°)
2.29086765276776e+005	(-1.93668965911655e+001dB,1.52980339389471e+002°)
2.34422881531991e+005	(-1.93381627283938e+001dB,1.52312650832232e+002°)
2.39883291901948e+005	(-1.93081919927384e+001dB,1.51626486034544e+002°)
2.45470891568502e+005	(-1.92769390035972e+001dB,1.50921185017749e+002°)
2.51188643150957e+005	(-1.92443577380824e+001dB,1.50196053865482e+002°)
2.57039578276885e+005	(-1.92104016833377e+001dB,1.49450362443097e+002°)
2.63026799189537e+005	(-1.91750240229554e+001dB,1.48683341927271e+002°)
2.69153480392690e+005	(-1.91381778565123e+001dB,1.47894182158913e+002°)
2.75422870333815e+005	(-1.90998164624493e+001dB,1.47082028820895e+002°)
2.81838293126444e+005	(-1.90598936075547e+001dB,1.46245980419393e+002°)
2.88403150312659e+005	(-1.90183639118823e+001dB,1.45385085061023e+002°)
2.95120922666637e+005	(-1.89751832751385e+001dB,1.44498337051169e+002°)
3.01995172040200e+005	(-1.89303093758675e+001dB,1.43584673250796e+002°)
3.09029543251358e+005	(-1.88837022542869e+001dB,1.42642969276705e+002°)
3.16227766016836e+005	(-1.88353249862712e+001dB,1.41672035476731e+002°)
3.23593656929627e+005	(-1.87851444654857e+001dB,1.40670612761708e+002°)
3.31131121482589e+005	(-1.87331323111394e+001dB,1.39637368255046e+002°)
3.38844156139201e+005	(-1.86792659101159e+001dB,1.38570890856734e+002°)
3.46736850452530e+005	(-1.86235296205328e+001dB,1.37469686733629e+002°)
3.54813389233574e+005	(-1.85659161523954e+001dB,1.36332174813595e+002°)
3.63078054770099e+005	(-1.85064281499822e+001dB,1.35156682403698e+002°)
3.71535229097171e+005	(-1.84450799999950e+001dB,1.33941441003673e+002°)
3.80189396320559e+005	(-1.83818998941604e+001dB,1.32684582526479e+002°)
3.89045144994279e+005	(-1.83169321715030e+001dB,1.31384136094230e+002°)
3.98107170553495e+005	(-1.82502399696538e+001dB,1.30038025667749e+002°)
4.07380277804111e+005	(-1.81819082183931e+001dB,1.28644068849138e+002°)
4.16869383470333e+005	(-1.81120469963304e+001dB,1.27199977210122e+002°)
4.26579518801590e+005	(-1.80407952796474e+001dB,1.25703358654370e+002°)
4.36515832240164e+005	(-1.79683251005868e+001dB,1.24151722386356e+002°)
4.46683592150961e+005	(-1.78948461231514e+001dB,1.22542487160658e+002°)
4.57088189614873e+005	(-1.78206106296354e+001dB,1.20872993631593e+002°)
4.67735141287196e+005	(-1.77459188968846e+001dB,1.19140521754333e+002°)
4.78630092322636e+005	(-1.76711249051128e+001dB,1.17342314259024e+002°)
4.89778819368444e+005	(-1.75966422853475e+001dB,1.15475607453618e+002°)
5.01187233627270e+005	(-1.75229503806128e+001dB,1.13537670533866e+002°)
5.12861383991362e+005	(-1.74506002117020e+001dB,1.11525854779081e+002°)
5.24807460249770e+005	(-1.73802200912124e+001dB,1.09437653854794e+002°)
5.37031796370250e+005	(-1.73125205268823e+001dB,1.07270776339788e+002°)
5.49540873857621e+005	(-1.72482979870519e+001dB,1.05023231239718e+002°)
5.62341325190346e+005	(-1.71884369825359e+001dB,1.02693426720510e+002°)
5.75439937337154e+005	(-1.71339098518749e+001dB,1.00280281537878e+002°)
5.88843655355586e+005	(-1.70857735545188e+001dB,9.77833474665306e+001°)
6.02559586074354e+005	(-1.70451627563590e+001dB,9.52029397303670e+001°)
6.16595001861479e+005	(-1.70132785157318e+001dB,9.25402707292101e+001°)
6.30957344480189e+005	(-1.69913719803864e+001dB,8.97975805267927e+001°)
6.45654229034652e+005	(-1.69807227520727e+001dB,8.69782557891516e+001°)
6.60693448007592e+005	(-1.69826118720597e+001dB,8.40869272405386e+001°)
6.76082975391978e+005	(-1.69982898614797e+001dB,8.11295348169860e+001°)
6.91830970918932e+005	(-1.70289407836732e+001dB,7.81133496936547e+001°)
7.07945784384134e+005	(-1.70756438698911e+001dB,7.50469436805532e+001°)
7.24435960074986e+005	(-1.71393347984095e+001dB,7.19400992602612e+001°)
7.41310241300913e+005	(-1.72207691245878e+001dB,6.88036578345584e+001°)
7.58577575029179e+005	(-1.73204905335399e+001dB,6.56493090507444e+001°)
7.76247116628687e+005	(-1.74388064485246e+001dB,6.24893299042829e+001°)
7.94328234724276e+005	(-1.75757730826400e+001dB,5.93362877891540e+001°)
8.12830516164094e+005	(-1.77311912611436e+001dB,5.62027257543319e+001°)
8.31763771102666e+005	(-1.79046133815826e+001dB,5.31008503448943e+001°)
8.51138038202371e+005	(-1.80953608798172e+001dB,5.00422421419007e+001°)
8.70963589956075e+005	(-1.83025506544958e+001dB,4.70376063003024e+001°)
8.91250938133740e+005	(-1.85251282098506e+001dB,4.40965759574675e+001°)
9.12010839355904e+005	(-1.87619049153271e+001dB,4.12275756434974e+001°)
9.33254300796985e+005	(-1.90115967248720e+001dB,3.84377461473202e+001°)
9.54992586021430e+005	(-1.92728619514069e+001dB,3.57329271102526e+001°)
9.77237220955804e+005	(-1.95443361365679e+001dB,3.31176897709676e+001°)
9.99999999999993e+005	(-1.98246626197692e+001dB,3.05954098523067e+001°)
1.02329299228075e+006	(-2.01125179951134e+001dB,2.81683696903207e+001°)
1.04712854805089e+006	(-2.04066321519121e+001dB,2.58378788672989e+001°)
1.07151930523760e+006	(-2.07058030342556e+001dB,2.36044038639398e+001°)
1.09647819614318e+006	(-2.10089065466662e+001dB,2.14676988280857e+001°)
1.12201845430196e+006	(-2.13149022278821e+001dB,1.94269314147899e+001°)
1.14815362149688e+006	(-2.16228354024923e+001dB,1.74807994816997e+001°)
1.17489755493952e+006	(-2.19318365267979e+001dB,1.56276359433202e+001°)
1.20226443461740e+006	(-2.22411184118658e+001dB,1.38655005282692e+001°)
1.23026877081237e+006	(-2.25499719248577e+001dB,1.21922580456330e+001°)
1.25892541179416e+006	(-2.28577606831332e+001dB,1.06056436034032e+001°)
1.28824955169313e+006	(-2.31639151628793e+001dB,9.10331565438664e+000°)
1.31825673855640e+006	(-2.34679265524779e+001dB,7.68289802791867e+000°)
1.34896288259164e+006	(-2.37693406060700e+001dB,6.34201225044843e+000°)
1.38038426460288e+006	(-2.40677516816671e+001dB,5.07830146273513e+000°)
1.41253754462274e+006	(-2.43627970964567e+001dB,3.88944722748177e+000°)
1.44543977074592e+006	(-2.46541518834536e+001dB,2.77318037152714e+000°)
1.47910838816820e+006	(-2.49415240045132e+001dB,1.72728697076778e+000°)
1.51356124843620e+006	(-2.52246500452953e+001dB,7.49610397717492e-001°)
1.54881661891247e+006	(-2.55032913999787e+001dB,-1.61949735352121e-001°)
1.58489319246110e+006	(-2.57772309415572e+001dB,-1.00944101185005e+000°)
1.62181009735892e+006	(-2.60462701615585e+001dB,-1.79486342019457e+000°)
1.65958690743755e+006	(-2.63102267589252e+001dB,-2.52017580379773e+000°)
1.69824365246173e+006	(-2.65689326521178e+001dB,-3.18730310878615e+000°)
1.73780082874936e+006	(-2.68222323871958e+001dB,-3.79814401424754e+000°)
1.77827941003891e+006	(-2.70699819110487e+001dB,-4.35457866589117e+000°)
1.81970085860997e+006	(-2.73120476800835e+001dB,-4.85847617077182e+000°)
1.86208713666285e+006	(-2.75483060714386e+001dB,-5.31170164694595e+000°)
1.90546071796323e+006	(-2.77786430646814e+001dB,-5.71612260895201e+000°)
1.94984459975803e+006	(-2.80029541607501e+001dB,-6.07361450950410e+000°)
1.99526231496887e+006	(-2.82211445040913e+001dB,-6.38606529785003e+000°)
2.00000000000000e+006	(-2.82432668577631e+001dB,-6.41576472231082e+000°)
