Freq.	V(output)/V(input)
1.00000000000000e+002	(1.99979526720778e+001dB,1.79831104958024e+002°)
1.02329299228075e+002	(1.99979510593481e+001dB,1.79827170907464e+002°)
1.04712854805090e+002	(1.99979493706133e+001dB,1.79823145222536e+002°)
1.07151930523761e+002	(1.99979476022914e+001dB,1.79819025768899e+002°)
1.09647819614318e+002	(1.99979457506321e+001dB,1.79814810362556e+002°)
1.12201845430196e+002	(1.99979438117074e+001dB,1.79810496768562e+002°)
1.14815362149688e+002	(1.99979417814052e+001dB,1.79806082699988e+002°)
1.17489755493953e+002	(1.99979396554186e+001dB,1.79801565816588e+002°)
1.20226443461741e+002	(1.99979374292385e+001dB,1.79796943723667e+002°)
1.23026877081238e+002	(1.99979350981431e+001dB,1.79792213970737e+002°)
1.25892541179417e+002	(1.99979326571879e+001dB,1.79787374050237e+002°)
1.28824955169313e+002	(1.99979301011954e+001dB,1.79782421396198e+002°)
1.31825673855641e+002	(1.99979274247444e+001dB,1.79777353382945e+002°)
1.34896288259165e+002	(1.99979246221577e+001dB,1.79772167323591e+002°)
1.38038426460288e+002	(1.99979216874911e+001dB,1.79766860468728e+002°)
1.41253754462275e+002	(1.99979186145204e+001dB,1.79761430004933e+002°)
1.44543977074593e+002	(1.99979153967271e+001dB,1.79755873053194e+002°)
1.47910838816821e+002	(1.99979120272864e+001dB,1.79750186667519e+002°)
1.51356124843621e+002	(1.99979084990517e+001dB,1.79744367833291e+002°)
1.54881661891248e+002	(1.99979048045395e+001dB,1.79738413465717e+002°)
1.58489319246111e+002	(1.99979009359136e+001dB,1.79732320408148e+002°)
1.62181009735893e+002	(1.99978968849687e+001dB,1.79726085430439e+002°)
1.65958690743756e+002	(1.99978926431127e+001dB,1.79719705227233e+002°)
1.69824365246174e+002	(1.99978882013487e+001dB,1.79713176416218e+002°)
1.73780082874937e+002	(1.99978835502555e+001dB,1.79706495536284e+002°)
1.77827941003892e+002	(1.99978786799686e+001dB,1.79699659045811e+002°)
1.81970085860998e+002	(1.99978735801577e+001dB,1.79692663320628e+002°)
1.86208713666287e+002	(1.99978682400066e+001dB,1.79685504652251e+002°)
1.90546071796324e+002	(1.99978626481891e+001dB,1.79678179245853e+002°)
1.94984459975804e+002	(1.99978567928449e+001dB,1.79670683218187e+002°)
1.99526231496888e+002	(1.99978506615555e+001dB,1.79663012595705e+002°)
2.04173794466953e+002	(1.99978442413162e+001dB,1.79655163312190e+002°)
2.08929613085404e+002	(1.99978375185108e+001dB,1.79647131206979e+002°)
2.13796208950223e+002	(1.99978304788805e+001dB,1.79638912022382e+002°)
2.18776162394955e+002	(1.99978231074949e+001dB,1.79630501401659e+002°)
2.23872113856834e+002	(1.99978153887195e+001dB,1.79621894886556e+002°)
2.29086765276777e+002	(1.99978073061845e+001dB,1.79613087915248e+002°)
2.34422881531992e+002	(1.99977988427473e+001dB,1.79604075819514e+002°)
2.39883291901949e+002	(1.99977899804584e+001dB,1.79594853822617e+002°)
2.45470891568503e+002	(1.99977807005220e+001dB,1.79585417036554e+002°)
2.51188643150958e+002	(1.99977709832568e+001dB,1.79575760459565e+002°)
2.57039578276886e+002	(1.99977608080541e+001dB,1.79565878973498e+002°)
2.63026799189538e+002	(1.99977501533346e+001dB,1.79555767341133e+002°)
2.69153480392691e+002	(1.99977389965013e+001dB,1.79545420203241e+002°)
2.75422870333816e+002	(1.99977273138935e+001dB,1.79534832076060e+002°)
2.81838293126445e+002	(1.99977150807350e+001dB,1.79523997348053e+002°)
2.88403150312660e+002	(1.99977022710823e+001dB,1.79512910277194e+002°)
2.95120922666638e+002	(1.99976888577695e+001dB,1.79501564987817e+002°)
3.01995172040201e+002	(1.99976748123513e+001dB,1.79489955467624e+002°)
3.09029543251358e+002	(1.99976601050413e+001dB,1.79478075564309e+002°)
3.16227766016837e+002	(1.99976447046506e+001dB,1.79465918982588e+002°)
3.23593656929628e+002	(1.99976285785201e+001dB,1.79453479280601e+002°)
3.31131121482590e+002	(1.99976116924525e+001dB,1.79440749866717e+002°)
3.38844156139202e+002	(1.99975940106394e+001dB,1.79427723995989e+002°)
3.46736850452531e+002	(1.99975754955849e+001dB,1.79414394766510e+002°)
3.54813389233575e+002	(1.99975561080273e+001dB,1.79400755116009e+002°)
3.63078054770101e+002	(1.99975358068547e+001dB,1.79386797817809e+002°)
3.71535229097172e+002	(1.99975145490187e+001dB,1.79372515477323e+002°)
3.80189396320560e+002	(1.99974922894432e+001dB,1.79357900528035e+002°)
3.89045144994280e+002	(1.99974689809282e+001dB,1.79342945227399e+002°)
3.98107170553496e+002	(1.99974445740503e+001dB,1.79327641652943e+002°)
4.07380277804112e+002	(1.99974190170586e+001dB,1.79311981698119e+002°)
4.16869383470335e+002	(1.99973922557636e+001dB,1.79295957067781e+002°)
4.26579518801592e+002	(1.99973642334240e+001dB,1.79279559274184e+002°)
4.36515832240165e+002	(1.99973348906256e+001dB,1.79262779632241e+002°)
4.46683592150962e+002	(1.99973041651559e+001dB,1.79245609255123e+002°)
4.57088189614874e+002	(1.99972719918716e+001dB,1.79228039049452e+002°)
4.67735141287197e+002	(1.99972383025622e+001dB,1.79210059710730e+002°)
4.78630092322637e+002	(1.99972030258038e+001dB,1.79191661718230e+002°)
4.89778819368445e+002	(1.99971660868092e+001dB,1.79172835330181e+002°)
5.01187233627271e+002	(1.99971274072696e+001dB,1.79153570578666e+002°)
5.12861383991364e+002	(1.99970869051877e+001dB,1.79133857264258e+002°)
5.24807460249771e+002	(1.99970444947053e+001dB,1.79113684950763e+002°)
5.37031796370251e+002	(1.99970000859216e+001dB,1.79093042959905e+002°)
5.49540873857623e+002	(1.99969535847019e+001dB,1.79071920365450e+002°)
5.62341325190348e+002	(1.99969048924792e+001dB,1.79050305987654e+002°)
5.75439937337155e+002	(1.99968539060468e+001dB,1.79028188387615e+002°)
5.88843655355587e+002	(1.99968005173378e+001dB,1.79005555860994e+002°)
6.02559586074356e+002	(1.99967446131983e+001dB,1.78982396432091e+002°)
6.16595001861481e+002	(1.99966860751472e+001dB,1.78958697847579e+002°)
6.30957344480192e+002	(1.99966247791265e+001dB,1.78934447570126e+002°)
6.45654229034654e+002	(1.99965605952382e+001dB,1.78909632771848e+002°)
6.60693448007594e+002	(1.99964933874708e+001dB,1.78884240327804e+002°)
6.76082975391980e+002	(1.99964230134112e+001dB,1.78858256808997e+002°)
6.91830970918935e+002	(1.99963493239435e+001dB,1.78831668475408e+002°)
7.07945784384136e+002	(1.99962721629348e+001dB,1.78804461269053e+002°)
7.24435960074988e+002	(1.99961913669061e+001dB,1.78776620806768e+002°)
7.41310241300916e+002	(1.99961067646850e+001dB,1.78748132372440e+002°)
7.58577575029182e+002	(1.99960181770459e+001dB,1.78718980909621e+002°)
7.76247116628690e+002	(1.99959254163318e+001dB,1.78689151013929e+002°)
7.94328234724279e+002	(1.99958282860591e+001dB,1.78658626925135e+002°)
8.12830516164097e+002	(1.99957265805005e+001dB,1.78627392518594e+002°)
8.31763771102669e+002	(1.99956200842528e+001dB,1.78595431297401e+002°)
8.51138038202374e+002	(1.99955085717837e+001dB,1.78562726383906e+002°)
8.70963589956078e+002	(1.99953918069559e+001dB,1.78529260511209e+002°)
8.91250938133743e+002	(1.99952695425276e+001dB,1.78495016013872e+002°)
9.12010839355907e+002	(1.99951415196348e+001dB,1.78459974819461e+002°)
9.33254300796988e+002	(1.99950074672435e+001dB,1.78424118439038e+002°)
9.54992586021433e+002	(1.99948671015826e+001dB,1.78387427958131e+002°)
9.77237220955808e+002	(1.99947201255427e+001dB,1.78349884026654e+002°)
9.99999999999997e+002	(1.99945662280532e+001dB,1.78311466849471e+002°)
1.02329299228075e+003	(1.99944050834291e+001dB,1.78272156176438e+002°)
1.04712854805090e+003	(1.99942363506866e+001dB,1.78231931292309e+002°)
1.07151930523760e+003	(1.99940596728241e+001dB,1.78190771006036e+002°)
1.09647819614318e+003	(1.99938746760757e+001dB,1.78148653640504e+002°)
1.12201845430196e+003	(1.99936809691237e+001dB,1.78105557021263e+002°)
1.14815362149688e+003	(1.99934781422839e+001dB,1.78061458466612e+002°)
1.17489755493953e+003	(1.99932657666362e+001dB,1.78016334774644e+002°)
1.20226443461741e+003	(1.99930433931377e+001dB,1.77970162213618e+002°)
1.23026877081238e+003	(1.99928105516713e+001dB,1.77922916508645e+002°)
1.25892541179416e+003	(1.99925667500743e+001dB,1.77874572831727e+002°)
1.28824955169313e+003	(1.99923114730944e+001dB,1.77825105787303e+002°)
1.31825673855640e+003	(1.99920441813250e+001dB,1.77774489401895e+002°)
1.34896288259165e+003	(1.99917643100697e+001dB,1.77722697110206e+002°)
1.38038426460288e+003	(1.99914712681736e+001dB,1.77669701743717e+002°)
1.41253754462275e+003	(1.99911644367803e+001dB,1.77615475516189e+002°)
1.44543977074592e+003	(1.99908431680435e+001dB,1.77559990010780e+002°)
1.47910838816820e+003	(1.99905067837898e+001dB,1.77503216167993e+002°)
1.51356124843620e+003	(1.99901545740897e+001dB,1.77445124269490e+002°)
1.54881661891248e+003	(1.99897857957970e+001dB,1.77385683926378e+002°)
1.58489319246111e+003	(1.99893996710007e+001dB,1.77324864064083e+002°)
1.62181009735892e+003	(1.99889953854063e+001dB,1.77262632907546e+002°)
1.65958690743755e+003	(1.99885720866552e+001dB,1.77198957967373e+002°)
1.69824365246174e+003	(1.99881288825613e+001dB,1.77133806025030e+002°)
1.73780082874937e+003	(1.99876648392560e+001dB,1.77067143116652e+002°)
1.77827941003892e+003	(1.99871789792778e+001dB,1.76998934519872e+002°)
1.81970085860998e+003	(1.99866702795336e+001dB,1.76929144735573e+002°)
1.86208713666286e+003	(1.99861376692128e+001dB,1.76857737474787e+002°)
1.90546071796324e+003	(1.99855800275756e+001dB,1.76784675641659e+002°)
1.94984459975804e+003	(1.99849961816479e+001dB,1.76709921316997e+002°)
1.99526231496887e+003	(1.99843849038216e+001dB,1.76633435742586e+002°)
2.04173794466952e+003	(1.99837449093395e+001dB,1.76555179304648e+002°)
2.08929613085403e+003	(1.99830748536780e+001dB,1.76475111518029e+002°)
2.13796208950222e+003	(1.99823733297877e+001dB,1.76393191007691e+002°)
2.18776162394954e+003	(1.99816388652372e+001dB,1.76309375492937e+002°)
2.23872113856833e+003	(1.99808699192270e+001dB,1.76223621770821e+002°)
2.29086765276776e+003	(1.99800648794602e+001dB,1.76135885698679e+002°)
2.34422881531991e+003	(1.99792220588641e+001dB,1.76046122175481e+002°)
2.39883291901948e+003	(1.99783396922147e+001dB,1.75954285127361e+002°)
2.45470891568502e+003	(1.99774159325503e+001dB,1.75860327487584e+002°)
2.51188643150957e+003	(1.99764488474816e+001dB,1.75764201181052e+002°)
2.57039578276885e+003	(1.99754364153014e+001dB,1.75665857105269e+002°)
2.63026799189537e+003	(1.99743765209677e+001dB,1.75565245115310e+002°)
2.69153480392690e+003	(1.99732669518602e+001dB,1.75462314004021e+002°)
2.75422870333815e+003	(1.99721053934004e+001dB,1.75357011486020e+002°)
2.81838293126444e+003	(1.99708894244716e+001dB,1.75249284181299e+002°)
2.88403150312659e+003	(1.99696165126117e+001dB,1.75139077595879e+002°)
2.95120922666637e+003	(1.99682840090621e+001dB,1.75026336107586e+002°)
3.01995172040200e+003	(1.99668891435654e+001dB,1.74911002948717e+002°)
3.09029543251358e+003	(1.99654290189452e+001dB,1.74793020189061e+002°)
3.16227766016836e+003	(1.99639006054811e+001dB,1.74672328720704e+002°)
3.23593656929627e+003	(1.99623007350379e+001dB,1.74548868242332e+002°)
3.31131121482590e+003	(1.99606260949525e+001dB,1.74422577243967e+002°)
3.38844156139201e+003	(1.99588732216909e+001dB,1.74293392993428e+002°)
3.46736850452530e+003	(1.99570384942052e+001dB,1.74161251520321e+002°)
3.54813389233574e+003	(1.99551181270835e+001dB,1.74026087604980e+002°)
3.63078054770100e+003	(1.99531081633635e+001dB,1.73887834763776e+002°)
3.71535229097171e+003	(1.99510044671386e+001dB,1.73746425239958e+002°)
3.80189396320559e+003	(1.99488027157794e+001dB,1.73601789989715e+002°)
3.89045144994279e+003	(1.99464983919428e+001dB,1.73453858674284e+002°)
3.98107170553495e+003	(1.99440867752540e+001dB,1.73302559651980e+002°)
4.07380277804111e+003	(1.99415629336200e+001dB,1.73147819968313e+002°)
4.16869383470333e+003	(1.99389217142689e+001dB,1.72989565350421e+002°)
4.26579518801591e+003	(1.99361577344913e+001dB,1.72827720204082e+002°)
4.36515832240164e+003	(1.99332653719907e+001dB,1.72662207609908e+002°)
4.46683592150961e+003	(1.99302387548257e+001dB,1.72492949317907e+002°)
4.57088189614873e+003	(1.99270717512499e+001dB,1.72319865756157e+002°)
4.67735141287196e+003	(1.99237579588375e+001dB,1.72142876023897e+002°)
4.78630092322636e+003	(1.99202906936251e+001dB,1.71961897905283e+002°)
4.89778819368444e+003	(1.99166629785276e+001dB,1.71776847868050e+002°)
5.01187233627270e+003	(1.99128675316938e+001dB,1.71587641079381e+002°)
5.12861383991362e+003	(1.99088967542820e+001dB,1.71394191414836e+002°)
5.24807460249770e+003	(1.99047427180101e+001dB,1.71196411477095e+002°)
5.37031796370250e+003	(1.99003971521459e+001dB,1.70994212609220e+002°)
5.49540873857622e+003	(1.98958514303802e+001dB,1.70787504922596e+002°)
5.62341325190346e+003	(1.98910965570680e+001dB,1.70576197317798e+002°)
5.75439937337154e+003	(1.98861231532547e+001dB,1.70360197515305e+002°)
5.88843655355586e+003	(1.98809214424697e+001dB,1.70139412094797e+002°)
6.02559586074354e+003	(1.98754812357020e+001dB,1.69913746521179e+002°)
6.16595001861479e+003	(1.98697919166884e+001dB,1.69683105201494e+002°)
6.30957344480190e+003	(1.98638424262809e+001dB,1.69447391521840e+002°)
6.45654229034652e+003	(1.98576212468935e+001dB,1.69206507906754e+002°)
6.60693448007592e+003	(1.98511163864947e+001dB,1.68960355876346e+002°)
6.76082975391978e+003	(1.98443153622803e+001dB,1.68708836109217e+002°)
6.91830970918932e+003	(1.98372051843828e+001dB,1.68451848520059e+002°)
7.07945784384134e+003	(1.98297723388503e+001dB,1.68189292327546e+002°)
7.24435960074986e+003	(1.98220027710777e+001dB,1.67921066149836e+002°)
7.41310241300913e+003	(1.98138818685349e+001dB,1.67647068088192e+002°)
7.58577575029179e+003	(1.98053944438100e+001dB,1.67367195833900e+002°)
7.76247116628687e+003	(1.97965247173065e+001dB,1.67081346771751e+002°)
7.94328234724277e+003	(1.97872563001246e+001dB,1.66789418098449e+002°)
8.12830516164094e+003	(1.97775721770211e+001dB,1.66491306950630e+002°)
8.31763771102666e+003	(1.97674546891666e+001dB,1.66186910532674e+002°)
8.51138038202371e+003	(1.97568855177441e+001dB,1.65876126270561e+002°)
8.70963589956075e+003	(1.97458456671793e+001dB,1.65558851960304e+002°)
8.91250938133740e+003	(1.97343154489607e+001dB,1.65234985930408e+002°)
9.12010839355904e+003	(1.97222744663088e+001dB,1.64904427227002e+002°)
9.33254300796985e+003	(1.97097015986682e+001dB,1.64567075790052e+002°)
9.54992586021430e+003	(1.96965749875320e+001dB,1.64222832655912e+002°)
9.77237220955804e+003	(1.96828720226276e+001dB,1.63871600165007e+002°)
9.99999999999993e+003	(1.96685693294134e+001dB,1.63513282185857e+002°)
1.02329299228075e+004	(1.96536427569859e+001dB,1.63147784339359e+002°)
1.04712854805089e+004	(1.96380673681117e+001dB,1.62775014255415e+002°)
1.07151930523760e+004	(1.96218174295380e+001dB,1.62394881817634e+002°)
1.09647819614318e+004	(1.96048664049939e+001dB,1.62007299445165e+002°)
1.12201845430196e+004	(1.95871869483364e+001dB,1.61612182357590e+002°)
1.14815362149688e+004	(1.95687509004804e+001dB,1.61209448886535e+002°)
1.17489755493952e+004	(1.95495292861495e+001dB,1.60799020760664e+002°)
1.20226443461740e+004	(1.95294923151194e+001dB,1.60380823441081e+002°)
1.23026877081237e+004	(1.95086093838338e+001dB,1.59954786431739e+002°)
1.25892541179416e+004	(1.94868490810860e+001dB,1.59520843628046e+002°)
1.28824955169313e+004	(1.94641791956420e+001dB,1.59078933657463e+002°)
1.31825673855640e+004	(1.94405667274943e+001dB,1.58629000240572e+002°)
1.34896288259164e+004	(1.94159779018388e+001dB,1.58170992553045e+002°)
1.38038426460288e+004	(1.93903781867957e+001dB,1.57704865597827e+002°)
1.41253754462274e+004	(1.93637323145843e+001dB,1.57230580582030e+002°)
1.44543977074592e+004	(1.93360043068213e+001dB,1.56748105301102e+002°)
1.47910838816820e+004	(1.93071575035665e+001dB,1.56257414524327e+002°)
1.51356124843620e+004	(1.92771545961313e+001dB,1.55758490372669e+002°)
1.54881661891247e+004	(1.92459576657171e+001dB,1.55251322718530e+002°)
1.58489319246110e+004	(1.92135282250920e+001dB,1.54735909561871e+002°)
1.62181009735892e+004	(1.91798272653644e+001dB,1.54212257406292e+002°)
1.65958690743755e+004	(1.91448153077793e+001dB,1.53680381634120e+002°)
1.69824365246173e+004	(1.91084524606756e+001dB,1.53140306872579e+002°)
1.73780082874936e+004	(1.90706984803494e+001dB,1.52592067336526e+002°)
1.77827941003891e+004	(1.90315128377911e+001dB,1.52035707168637e+002°)
1.81970085860997e+004	(1.89908547897556e+001dB,1.51471280750996e+002°)
1.86208713666285e+004	(1.89486834556206e+001dB,1.50898853010377e+002°)
1.90546071796323e+004	(1.89049578978452e+001dB,1.50318499681492e+002°)
1.94984459975803e+004	(1.88596372080274e+001dB,1.49730307556600e+002°)
1.99526231496887e+004	(1.88126805969691e+001dB,1.49134374698615e+002°)
2.04173794466951e+004	(1.87640474897634e+001dB,1.48530810626485e+002°)
2.08929613085402e+004	(1.87136976232142e+001dB,1.47919736450233e+002°)
2.13796208950222e+004	(1.86615911493317e+001dB,1.47301284988447e+002°)
2.18776162394954e+004	(1.86076887400049e+001dB,1.46675600822254e+002°)
2.23872113856832e+004	(1.85519516947805e+001dB,1.46042840309806e+002°)
2.29086765276776e+004	(1.84943420526598e+001dB,1.45403171562330e+002°)
2.34422881531990e+004	(1.84348227043664e+001dB,1.44756774364963e+002°)
2.39883291901947e+004	(1.83733575050323e+001dB,1.44103840029645e+002°)
2.45470891568501e+004	(1.83099113884463e+001dB,1.43444571213280e+002°)
2.51188643150956e+004	(1.82444504826591e+001dB,1.42779181679159e+002°)
2.57039578276884e+004	(1.81769422222738e+001dB,1.42107895995419e+002°)
2.63026799189536e+004	(1.81073554595139e+001dB,1.41430949164856e+002°)
2.69153480392689e+004	(1.80356605751819e+001dB,1.40748586226555e+002°)
2.75422870333814e+004	(1.79618295829647e+001dB,1.40061061766819e+002°)
2.81838293126443e+004	(1.78858362353673e+001dB,1.39368639416523e+002°)
2.88403150312658e+004	(1.78076561182515e+001dB,1.38671591244546e+002°)
2.95120922666636e+004	(1.77272667448134e+001dB,1.37970197134739e+002°)
3.01995172040199e+004	(1.76446476416759e+001dB,1.37264744100287e+002°)
3.09029543251357e+004	(1.75597804295256e+001dB,1.36555525558536e+002°)
3.16227766016835e+004	(1.74726488938699e+001dB,1.35842840549981e+002°)
3.23593656929626e+004	(1.73832390492551e+001dB,1.35126992925677e+002°)
3.31131121482588e+004	(1.72915391950585e+001dB,1.34408290504755e+002°)
3.38844156139200e+004	(1.71975399619315e+001dB,1.33687044195663e+002°)
3.46736850452529e+004	(1.71012343469260e+001dB,1.32963567090956e+002°)
3.54813389233573e+004	(1.70026177422463e+001dB,1.32238173552261e+002°)
3.63078054770098e+004	(1.69016879497293e+001dB,1.31511178267699e+002°)
3.71535229097169e+004	(1.67984451879016e+001dB,1.30782895315254e+002°)
3.80189396320558e+004	(1.66928920889400e+001dB,1.30053637223360e+002°)
3.89045144994277e+004	(1.65850336824627e+001dB,1.29323714025431e+002°)
3.98107170553494e+004	(1.64748773711586e+001dB,1.28593432330660e+002°)
4.07380277804109e+004	(1.63624328967787e+001dB,1.27863094418044e+002°)
4.16869383470332e+004	(1.62477122948842e+001dB,1.27132997338880e+002°)
4.26579518801589e+004	(1.61307298417096e+001dB,1.26403432060168e+002°)
4.36515832240162e+004	(1.60115019905651e+001dB,1.25674682623954e+002°)
4.46683592150959e+004	(1.58900473013062e+001dB,1.24947025360613e+002°)
4.57088189614871e+004	(1.57663863603545e+001dB,1.24220728127176e+002°)
4.67735141287194e+004	(1.56405416970552e+001dB,1.23496049605425e+002°)
4.78630092322634e+004	(1.55125376883120e+001dB,1.22773238636455e+002°)
4.89778819368442e+004	(1.53824004625966e+001dB,1.22052533607485e+002°)
5.01187233627268e+004	(1.52501577943834e+001dB,1.21334161896720e+002°)
5.12861383991360e+004	(1.51158390000803e+001dB,1.20618339372858e+002°)
5.24807460249768e+004	(1.49794748229536e+001dB,1.19905269936559e+002°)
5.37031796370248e+004	(1.48410973242278e+001dB,1.19195145148467e+002°)
5.49540873857620e+004	(1.47007397629100e+001dB,1.18488143872218e+002°)
5.62341325190344e+004	(1.45584364826318e+001dB,1.17784432010529e+002°)
5.75439937337152e+004	(1.44142227928189e+001dB,1.17084162279529e+002°)
5.88843655355584e+004	(1.42681348527626e+001dB,1.16387474036809e+002°)
6.02559586074352e+004	(1.41202095541631e+001dB,1.15694493166025e+002°)
6.16595001861477e+004	(1.39704844079357e+001dB,1.15005332014719e+002°)
6.30957344480187e+004	(1.38189974319220e+001dB,1.14320089374598e+002°)
