Freq.	V(vo)
2.00000000000000e+004	(-4.08330921589321e+001dB,1.68856351339596e+002°)
2.00461047615580e+004	(-4.07563779584089e+001dB,1.68808126838239e+002°)
2.00923158055679e+004	(-4.06794178921000e+001dB,1.68759535735097e+002°)
2.01386333770361e+004	(-4.06022098072610e+001dB,1.68710573608922e+002°)
2.01850577215337e+004	(-4.05247515256320e+001dB,1.68661235966115e+002°)
2.02315890851980e+004	(-4.04470408430429e+001dB,1.68611518239244e+002°)
2.02782277147336e+004	(-4.03690755290099e+001dB,1.68561415785519e+002°)
2.03249738574139e+004	(-4.02908533263252e+001dB,1.68510923885240e+002°)
2.03718277610823e+004	(-4.02123719506381e+001dB,1.68460037740201e+002°)
2.04187896741536e+004	(-4.01336290900285e+001dB,1.68408752472051e+002°)
2.04658598456151e+004	(-4.00546224045720e+001dB,1.68357063120623e+002°)
2.05130385250281e+004	(-3.99753495258960e+001dB,1.68304964642210e+002°)
2.05603259625295e+004	(-3.98958080567280e+001dB,1.68252451907805e+002°)
2.06077224088323e+004	(-3.98159955704344e+001dB,1.68199519701299e+002°)
2.06552281152279e+004	(-3.97359096105505e+001dB,1.68146162717620e+002°)
2.07028433335869e+004	(-3.96555476903013e+001dB,1.68092375560843e+002°)
2.07505683163602e+004	(-3.95749072921121e+001dB,1.68038152742234e+002°)
2.07984033165812e+004	(-3.94939858671107e+001dB,1.67983488678255e+002°)
2.08463485878661e+004	(-3.94127808346184e+001dB,1.67928377688514e+002°)
2.08944043844160e+004	(-3.93312895816312e+001dB,1.67872813993660e+002°)
2.09425709610180e+004	(-3.92495094622913e+001dB,1.67816791713228e+002°)
2.09908485730464e+004	(-3.91674377973467e+001dB,1.67760304863420e+002°)
2.10392374764644e+004	(-3.90850718736008e+001dB,1.67703347354835e+002°)
2.10877379278252e+004	(-3.90024089433504e+001dB,1.67645912990136e+002°)
2.11363501842731e+004	(-3.89194462238126e+001dB,1.67587995461653e+002°)
2.11850745035457e+004	(-3.88361808965396e+001dB,1.67529588348928e+002°)
2.12339111439745e+004	(-3.87526101068218e+001dB,1.67470685116187e+002°)
2.12828603644863e+004	(-3.86687309630784e+001dB,1.67411279109753e+002°)
2.13319224246051e+004	(-3.85845405362355e+001dB,1.67351363555378e+002°)
2.13810975844531e+004	(-3.85000358590914e+001dB,1.67290931555512e+002°)
2.14303861047521e+004	(-3.84152139256687e+001dB,1.67229976086496e+002°)
2.14797882468249e+004	(-3.83300716905527e+001dB,1.67168489995673e+002°)
2.15293042725967e+004	(-3.82446060682161e+001dB,1.67106465998429e+002°)
2.15789344445965e+004	(-3.81588139323294e+001dB,1.67043896675139e+002°)
2.16286790259587e+004	(-3.80726921150573e+001dB,1.66980774468046e+002°)
2.16785382804240e+004	(-3.79862374063391e+001dB,1.66917091678035e+002°)
2.17285124723413e+004	(-3.78994465531550e+001dB,1.66852840461331e+002°)
2.17786018666686e+004	(-3.78123162587760e+001dB,1.66788012826094e+002°)
2.18288067289751e+004	(-3.77248431819983e+001dB,1.66722600628929e+002°)
2.18791273254418e+004	(-3.76370239363608e+001dB,1.66656595571284e+002°)
2.19295639228637e+004	(-3.75488550893462e+001dB,1.66589989195759e+002°)
2.19801167886504e+004	(-3.74603331615645e+001dB,1.66522772882297e+002°)
2.20307861908283e+004	(-3.73714546259190e+001dB,1.66454937844276e+002°)
2.20815723980414e+004	(-3.72822159067542e+001dB,1.66386475124481e+002°)
2.21324756795533e+004	(-3.71926133789850e+001dB,1.66317375590963e+002°)
2.21834963052480e+004	(-3.71026433672068e+001dB,1.66247629932778e+002°)
2.22346345456318e+004	(-3.70123021447865e+001dB,1.66177228655598e+002°)
2.22858906718345e+004	(-3.69215859329328e+001dB,1.66106162077194e+002°)
2.23372649556112e+004	(-3.68304908997464e+001dB,1.66034420322793e+002°)
2.23887576693430e+004	(-3.67390131592489e+001dB,1.65961993320280e+002°)
2.24403690860392e+004	(-3.66471487703906e+001dB,1.65888870795280e+002°)
2.24920994793385e+004	(-3.65548937360352e+001dB,1.65815042266071e+002°)
2.25439491235101e+004	(-3.64622440019228e+001dB,1.65740497038359e+002°)
2.25959182934559e+004	(-3.63691954556087e+001dB,1.65665224199887e+002°)
2.26480072647111e+004	(-3.62757439253792e+001dB,1.65589212614885e+002°)
2.27002163134462e+004	(-3.61818851791418e+001dB,1.65512450918348e+002°)
2.27525457164686e+004	(-3.60876149232910e+001dB,1.65434927510137e+002°)
2.28049957512233e+004	(-3.59929288015481e+001dB,1.65356630548903e+002°)
2.28575666957954e+004	(-3.58978223937745e+001dB,1.65277547945818e+002°)
2.29102588289106e+004	(-3.58022912147577e+001dB,1.65197667358113e+002°)
2.29630724299376e+004	(-3.57063307129690e+001dB,1.65116976182417e+002°)
2.30160077788886e+004	(-3.56099362692939e+001dB,1.65035461547878e+002°)
2.30690651564218e+004	(-3.55131031957316e+001dB,1.64953110309078e+002°)
2.31222448438419e+004	(-3.54158267340649e+001dB,1.64869909038711e+002°)
2.31755471231024e+004	(-3.53181020544996e+001dB,1.64785844020039e+002°)
2.32289722768068e+004	(-3.52199242542717e+001dB,1.64700901239100e+002°)
2.32825205882097e+004	(-3.51212883562218e+001dB,1.64615066376661e+002°)
2.33361923412192e+004	(-3.50221893073363e+001dB,1.64528324799922e+002°)
2.33899878203973e+004	(-3.49226219772547e+001dB,1.64440661553937e+002°)
2.34439073109625e+004	(-3.48225811567404e+001dB,1.64352061352765e+002°)
2.34979510987905e+004	(-3.47220615561167e+001dB,1.64262508570321e+002°)
2.35521194704161e+004	(-3.46210578036648e+001dB,1.64171987230931e+002°)
2.36064127130345e+004	(-3.45195644439837e+001dB,1.64080480999571e+002°)
2.36608311145032e+004	(-3.44175759363113e+001dB,1.63987973171781e+002°)
2.37153749633431e+004	(-3.43150866528050e+001dB,1.63894446663236e+002°)
2.37700445487403e+004	(-3.42120908767814e+001dB,1.63799883998972e+002°)
2.38248401605474e+004	(-3.41085828009129e+001dB,1.63704267302240e+002°)
2.38797620892854e+004	(-3.40045565253817e+001dB,1.63607578282984e+002°)
2.39348106261448e+004	(-3.39000060559884e+001dB,1.63509798225921e+002°)
2.39899860629875e+004	(-3.37949253022156e+001dB,1.63410907978217e+002°)
2.40452886923482e+004	(-3.36893080752433e+001dB,1.63310887936722e+002°)
2.41007188074359e+004	(-3.35831480859173e+001dB,1.63209718034776e+002°)
2.41562767021355e+004	(-3.34764389426668e+001dB,1.63107377728544e+002°)
2.42119626710095e+004	(-3.33691741493723e+001dB,1.63003845982870e+002°)
2.42677770092994e+004	(-3.32613471031801e+001dB,1.62899101256634e+002°)
2.43237200129273e+004	(-3.31529510922644e+001dB,1.62793121487582e+002°)
2.43797919784972e+004	(-3.30439792935330e+001dB,1.62685884076621e+002°)
2.44359932032973e+004	(-3.29344247702780e+001dB,1.62577365871543e+002°)
2.44923239853009e+004	(-3.28242804697677e+001dB,1.62467543150158e+002°)
2.45487846231680e+004	(-3.27135392207788e+001dB,1.62356391602823e+002°)
2.46053754162475e+004	(-3.26021937310688e+001dB,1.62243886314318e+002°)
2.46620966645781e+004	(-3.24902365847846e+001dB,1.62130001745071e+002°)
2.47189486688901e+004	(-3.23776602398077e+001dB,1.62014711711672e+002°)
2.47759317306073e+004	(-3.22644570250335e+001dB,1.61897989366677e+002°)
2.48330461518481e+004	(-3.21506191375826e+001dB,1.61779807177646e+002°)
2.48902922354276e+004	(-3.20361386399437e+001dB,1.61660136905398e+002°)
2.49476702848587e+004	(-3.19210074570455e+001dB,1.61538949581439e+002°)
2.50051806043543e+004	(-3.18052173732551e+001dB,1.61416215484536e+002°)
2.50628234988282e+004	(-3.16887600293033e+001dB,1.61291904116393e+002°)
2.51205992738974e+004	(-3.15716269191322e+001dB,1.61165984176387e+002°)
2.51785082358832e+004	(-3.14538093866663e+001dB,1.61038423535333e+002°)
2.52365506918133e+004	(-3.13352986225022e+001dB,1.60909189208223e+002°)
2.52947269494229e+004	(-3.12160856605176e+001dB,1.60778247325897e+002°)
2.53530373171568e+004	(-3.10961613743958e+001dB,1.60645563105605e+002°)
2.54114821041707e+004	(-3.09755164740651e+001dB,1.60511100820396e+002°)
2.54700616203331e+004	(-3.08541415020507e+001dB,1.60374823767294e+002°)
2.55287761762267e+004	(-3.07320268297370e+001dB,1.60236694234189e+002°)
2.55876260831503e+004	(-3.06091626535386e+001dB,1.60096673465411e+002°)
2.56466116531203e+004	(-3.04855389909783e+001dB,1.59954721625890e+002°)
2.57057331988722e+004	(-3.03611456766695e+001dB,1.59810797763865e+002°)
2.57649910338625e+004	(-3.02359723582027e+001dB,1.59664859772066e+002°)
2.58243854722705e+004	(-3.01100084919320e+001dB,1.59516864347288e+002°)
2.58839168289996e+004	(-2.99832433386618e+001dB,1.59366766948292e+002°)
2.59435854196790e+004	(-2.98556659592312e+001dB,1.59214521751945e+002°)
2.60033915606656e+004	(-2.97272652099940e+001dB,1.59060081607528e+002°)
2.60633355690458e+004	(-2.95980297381940e+001dB,1.58903397989101e+002°)
2.61234177626367e+004	(-2.94679479772321e+001dB,1.58744420945857e+002°)
2.61836384599880e+004	(-2.93370081418263e+001dB,1.58583099050347e+002°)
2.62439979803839e+004	(-2.92051982230611e+001dB,1.58419379344482e+002°)
2.63044966438446e+004	(-2.90725059833267e+001dB,1.58253207283202e+002°)
2.63651347711280e+004	(-2.89389189511459e+001dB,1.58084526675693e+002°)
2.64259126837313e+004	(-2.88044244158898e+001dB,1.57913279624030e+002°)
2.64868307038931e+004	(-2.86690094223791e+001dB,1.57739406459128e+002°)
2.65478891545946e+004	(-2.85326607653735e+001dB,1.57562845673846e+002°)
2.66090883595616e+004	(-2.83953649839475e+001dB,1.57383533853124e+002°)
2.66704286432663e+004	(-2.82571083557538e+001dB,1.57201405600979e+002°)
2.67319103309287e+004	(-2.81178768911742e+001dB,1.57016393464225e+002°)
2.67935337485185e+004	(-2.79776563273609e+001dB,1.56828427852721e+002°)
2.68552992227571e+004	(-2.78364321221683e+001dB,1.56637436955996e+002°)
2.69172070811188e+004	(-2.76941894479776e+001dB,1.56443346656045e+002°)
2.69792576518329e+004	(-2.75509131854185e+001dB,1.56246080436103e+002°)
2.70414512638854e+004	(-2.74065879169899e+001dB,1.56045559285192e+002°)
2.71037882470205e+004	(-2.72611979205849e+001dB,1.55841701598208e+002°)
2.71662689317429e+004	(-2.71147271629249e+001dB,1.55634423071327e+002°)
2.72288936493188e+004	(-2.69671592929086e+001dB,1.55423636592471e+002°)
2.72916627317783e+004	(-2.68184776348839e+001dB,1.55209252126578e+002°)
2.73545765119168e+004	(-2.66686651818503e+001dB,1.54991176595398e+002°)
2.74176353232969e+004	(-2.65177045886018e+001dB,1.54769313751518e+002°)
2.74808395002501e+004	(-2.63655781648215e+001dB,1.54543564046315e+002°)
2.75441893778787e+004	(-2.62122678681406e+001dB,1.54313824491496e+002°)
2.76076852920575e+004	(-2.60577552971762e+001dB,1.54079988513891e+002°)
2.76713275794354e+004	(-2.59020216845652e+001dB,1.53841945803125e+002°)
2.77351165774376e+004	(-2.57450478900124e+001dB,1.53599582151782e+002°)
2.77990526242669e+004	(-2.55868143933751e+001dB,1.53352779287654e+002°)
2.78631360589058e+004	(-2.54273012878068e+001dB,1.53101414697635e+002°)
2.79273672211185e+004	(-2.52664882729899e+001dB,1.52845361442810e+002°)
2.79917464514521e+004	(-2.51043546484848e+001dB,1.52584487964242e+002°)
2.80562740912389e+004	(-2.49408793072330e+001dB,1.52318657878959e+002°)
2.81209504825981e+004	(-2.47760407292505e+001dB,1.52047729765585e+002°)
2.81857759684373e+004	(-2.46098169755562e+001dB,1.51771556939055e+002°)
2.82507508924549e+004	(-2.44421856823833e+001dB,1.51489987213793e+002°)
2.83158755991414e+004	(-2.42731240557281e+001dB,1.51202862654740e+002°)
2.83811504337816e+004	(-2.41026088662971e+001dB,1.50910019315527e+002°)
2.84465757424562e+004	(-2.39306164449189e+001dB,1.50611286963115e+002°)
2.85121518720435e+004	(-2.37571226784985e+001dB,1.50306488788124e+002°)
2.85778791702218e+004	(-2.35821030065957e+001dB,1.49995441100085e+002°)
2.86437579854706e+004	(-2.34055324187230e+001dB,1.49677953006772e+002°)
2.87097886670729e+004	(-2.32273854524668e+001dB,1.49353826076745e+002°)
2.87759715651167e+004	(-2.30476361925479e+001dB,1.49022853984194e+002°)
2.88423070304971e+004	(-2.28662582709499e+001dB,1.48684822135106e+002°)
2.89087954149183e+004	(-2.26832248682607e+001dB,1.48339507273775e+002°)
2.89754370708950e+004	(-2.24985087163834e+001dB,1.47986677068574e+002°)
2.90422323517546e+004	(-2.23120821027973e+001dB,1.47626089675909e+002°)
2.91091816116391e+004	(-2.21239168765624e+001dB,1.47257493281207e+002°)
2.91762852055067e+004	(-2.19339844562874e+001dB,1.46880625615744e+002°)
2.92435434891341e+004	(-2.17422558403021e+001dB,1.46495213448090e+002°)
2.93109568191180e+004	(-2.15487016193025e+001dB,1.46100972048889e+002°)
2.93785255528771e+004	(-2.13532919917670e+001dB,1.45697604627682e+002°)
2.94462500486541e+004	(-2.11559967824701e+001dB,1.45284801740419e+002°)
2.95141306655176e+004	(-2.09567854644624e+001dB,1.44862240666309e+002°)
2.95821677633639e+004	(-2.07556271849164e+001dB,1.44429584752627e+002°)
2.96503617029188e+004	(-2.05524907952873e+001dB,1.43986482726096e+002°)
2.97187128457399e+004	(-2.03473448862815e+001dB,1.43532567969472e+002°)
2.97872215542180e+004	(-2.01401578281784e+001dB,1.43067457761987e+002°)
2.98558881915796e+004	(-1.99308978171076e+001dB,1.42590752482350e+002°)
2.99247131218884e+004	(-1.97195329279476e+001dB,1.42102034773079e+002°)
2.99936967100472e+004	(-1.95060311745765e+001dB,1.41600868665038e+002°)
3.00628393218002e+004	(-1.92903605782852e+001dB,1.41086798661195e+002°)
3.01321413237346e+004	(-1.90724892452391e+001dB,1.40559348778796e+002°)
3.02016030832827e+004	(-1.88523854539661e+001dB,1.40018021549379e+002°)
3.02712249687239e+004	(-1.86300177539438e+001dB,1.39462296976366e+002°)
3.03410073491864e+004	(-1.84053550764595e+001dB,1.38891631450310e+002°)
3.04109505946496e+004	(-1.81783668590308e+001dB,1.38305456622358e+002°)
3.04810550759455e+004	(-1.79490231847914e+001dB,1.37703178237012e+002°)
3.05513211647612e+004	(-1.77172949383729e+001dB,1.37084174925976e+002°)
3.06217492336403e+004	(-1.74831539799469e+001dB,1.36447796965653e+002°)
3.06923396559856e+004	(-1.72465733392338e+001dB,1.35793365001835e+002°)
3.07630928060604e+004	(-1.70075274314258e+001dB,1.35120168746276e+002°)
3.08340090589909e+004	(-1.67659922971254e+001dB,1.34427465651205e+002°)
3.09050887907680e+004	(-1.65219458685450e+001dB,1.33714479569406e+002°)
3.09763323782493e+004	(-1.62753682643678e+001dB,1.32980399409416e+002°)
3.10477401991613e+004	(-1.60262421158056e+001dB,1.32224377797528e+002°)
3.11193126321012e+004	(-1.57745529265242e+001dB,1.31445529760882e+002°)
3.11910500565388e+004	(-1.55202894692158e+001dB,1.30642931448812e+002°)
3.12629528528188e+004	(-1.52634442216808e+001dB,1.29815618913033e+002°)
3.13350214021627e+004	(-1.50040138453289e+001dB,1.28962586971093e+002°)
3.14072560866707e+004	(-1.47419997089982e+001dB,1.28082788181907e+002°)
3.14796572893241e+004	(-1.44774084609152e+001dB,1.27175131967126e+002°)
3.15522253939866e+004	(-1.42102526514510e+001dB,1.26238483917660e+002°)
3.16249607854073e+004	(-1.39405514090462e+001dB,1.25271665330808e+002°)
3.16978638492219e+004	(-1.36683311712540e+001dB,1.24273453030211e+002°)
3.17709349719552e+004	(-1.33936264722459e+001dB,1.23242579528201e+002°)
3.18441745410231e+004	(-1.31164807873116e+001dB,1.22177733597953e+002°)
3.19175829447343e+004	(-1.28369474338027e+001dB,1.21077561331120e+002°)
3.19911605722930e+004	(-1.25550905265874e+001dB,1.19940667765074e+002°)
3.20649078138005e+004	(-1.22709859843369e+001dB,1.18765619172318e+002°)
3.21388250602572e+004	(-1.19847225808002e+001dB,1.17550946112615e+002°)
3.22129127035651e+004	(-1.16964030325902e+001dB,1.16295147355477e+002°)
3.22871711365294e+004	(-1.14061451118495e+001dB,1.14996694786196e+002°)
3.23616007528610e+004	(-1.11140827684378e+001dB,1.13654039411763e+002°)
3.24362019471782e+004	(-1.08203672419725e+001dB,1.12265618582813e+002°)
3.25109751150093e+004	(-1.05251681391427e+001dB,1.10829864542915e+002°)
3.25859206527941e+004	(-1.02286744462520e+001dB,1.09345214405719e+002°)
3.26610389578863e+004	(-9.93109544100319e+000dB,1.07810121641983e+002°)
3.27363304285558e+004	(-9.63266146128353e+000dB,1.06223069130652e+002°)
3.28117954639904e+004	(-9.33362448235822e+000dB,1.04582583789015e+002°)
3.28874344642983e+004	(-9.03425844779775e+000dB,1.02887252744851e+002°)
3.29632478305098e+004	(-8.73485929408002e+000dB,1.01135740946742e+002°)
3.30392359645799e+004	(-8.43574460472138e+000dB,9.93268100263902e+001°)
3.31153992693902e+004	(-8.13725282769937e+000dB,9.74593381285178e+001°)
3.31917381487508e+004	(-7.83974199066679e+000dB,9.55323403106416e+001°)
3.32682530074030e+004	(-7.54358785291853e+000dB,9.35449889890897e+001°)
3.33449442510209e+004	(-7.24918144219573e+000dB,9.14966337734209e+001°)
3.34218122862138e+004	(-6.95692593906273e+000dB,8.93868198955021e+001°)
3.34988575205283e+004	(-6.66723289246363e+000dB,8.72153043108118e+001°)
3.35760803624508e+004	(-6.38051777754207e+000dB,8.49820684394611e+001°)
3.36534812214089e+004	(-6.09719494080972e+000dB,8.26873264360779e+001°)
3.37310605077744e+004	(-5.81767201759020e+000dB,8.03315278454452e+001°)
3.38088186328649e+004	(-5.54234395094806e+000dB,7.79153535287360e+001°)
3.38867560089462e+004	(-5.27158678786961e+000dB,7.54397038456035e+001°)
3.39648730492345e+004	(-5.00575147442211e+000dB,7.29056782588833e+001°)
3.40431701678986e+004	(-4.74515791354832e+000dB,7.03145457940967e+001°)
3.41216477800620e+004	(-4.49008958338070e+000dB,6.76677061311003e+001°)
3.42003063018053e+004	(-4.24078903694816e+000dB,6.49666415177679e+001°)
3.42791461501681e+004	(-3.99745461298320e+000dB,6.22128601555439e+001°)
3.43581677431513e+004	(-3.76023868037075e+000dB,5.94078321878650e+001°)
3.44373714997197e+004	(-3.52924771520511e+000dB,5.65529198954006e+001°)
3.45167578398036e+004	(-3.30454447062779e+000dB,5.36493041380910e+001°)
3.45963271843016e+004	(-3.08615244832047e+000dB,5.06979094594617e+001°)
3.46760799550823e+004	(-2.87406282057121e+000dB,4.76993305694877e+001°)
3.47560165749871e+004	(-2.66824388754439e+000dB,4.46537631465918e+001°)
3.48361374678318e+004	(-2.46865308971225e+000dB,4.15609420593362e+001°)
3.49164430584096e+004	(-2.27525153292937e+000dB,3.84200902290063e+001°)
3.49969337724927e+004	(-2.08802092364989e+000dB,3.52298814699829e+001°)
3.50776100368348e+004	(-1.90698275146726e+000dB,3.19884207932604e+001°)
3.51584722791734e+004	(-1.73221948902886e+000dB,2.86932458723544e+001°)
3.52395209282321e+004	(-1.56389749509393e+000dB,2.53413536669183e+001°)
3.53207564137228e+004	(-1.40229119117273e+000dB,2.19292565658132e+001°)
3.54021791663480e+004	(-1.24780791933779e+000dB,1.84530727926149e+001°)
3.54837896178029e+004	(-1.10101266140468e+000dB,1.49086560971035e+001°)
3.55655882007780e+004	(-9.62651493645704e-001dB,1.12917697441988e+001°)
3.56475753489613e+004	(-8.33672260889071e-001dB,7.59830922716772e+000°)
3.57297514970406e+004	(-7.15240490149287e-001dB,3.82457660692753e+000°)
3.58121170807054e+004	(-6.08748064710788e-001dB,-3.23935154623696e-002°)
3.58946725366501e+004	(-5.15811721364896e-001dB,-3.97446107284399e+000°)
3.59774183025753e+004	(-4.38258140735091e-001dB,-8.00197209594811e+000°)
3.60603548171909e+004	(-3.78092446202522e-001dB,-1.21133349986083e+001°)
3.61434825202181e+004	(-3.37447514619686e-001dB,-1.63046119863833e+001°)
3.62268018523916e+004	(-3.18512821254955e-001dB,-2.05691660819584e+001°)
3.63103132554622e+004	(-3.23443691037393e-001dB,-2.48974119036796e+001°)
3.63940171721992e+004	(-3.54254719533154e-001dB,-2.92767204927583e+001°)
3.64779140463923e+004	(-4.12704400753404e-001dB,-3.36915221589206e+001°)
3.65620043228544e+004	(-5.00181008325825e-001dB,-3.81236346752637e+001°)
3.66462884474237e+004	(-6.17601691993843e-001dB,-4.25528178033098e+001°)
3.67307668669664e+004	(-7.65336797444895e-001dB,-4.69575228766550e+001°)
3.68154400293786e+004	(-9.43169182754447e-001dB,-5.13157746747621e+001°)
3.69003083835890e+004	(-1.15029398880608e+000dB,-5.56060998468316e+001°)
3.69853723795610e+004	(-1.38535877190470e+000dB,-5.98084079415340e+001°)
3.70706324682957e+004	(-1.64653838655356e+000dB,-6.39047399872416e+001°)
3.71560891018335e+004	(-1.93163476732271e+000dB,-6.78798230215081e+001°)
3.72417427332568e+004	(-2.23818962406567e+000dB,-7.17214006225990e+001°)
3.73275938166929e+004	(-2.56359820507241e+000dB,-7.54203415739253e+001°)
3.74136428073155e+004	(-2.90521426476814e+000dB,-7.89705547282145e+001°)
3.74998901613478e+004	(-3.26043941181117e+000dB,-8.23687542609753e+001°)
3.75863363360648e+004	(-3.62679328322112e+000dB,-8.56141253335743e+001°)
3.76729817897955e+004	(-4.00196385416277e+000dB,-8.87079376299992e+001°)
3.77598269819253e+004	(-4.38383930338567e+000dB,-9.16531463130679e+001°)
