Freq.	V(n006)/I(R3)
2.00000000000000e+004	(1.00419466393891e+002dB,1.78837060792574e+002°)
2.00461047615580e+004	(1.00420420205498e+002dB,1.78831015490457e+002°)
2.00923158055679e+004	(1.00421382838362e+002dB,1.78824913746975e+002°)
2.01386333770361e+004	(1.00422354404323e+002dB,1.78818754752799e+002°)
2.01850577215337e+004	(1.00423335017086e+002dB,1.78812537683115e+002°)
2.02315890851980e+004	(1.00424324792257e+002dB,1.78806261697251e+002°)
2.02782277147336e+004	(1.00425323847387e+002dB,1.78799925938299e+002°)
2.03249738574139e+004	(1.00426332302010e+002dB,1.78793529532725e+002°)
2.03718277610823e+004	(1.00427350277685e+002dB,1.78787071589963e+002°)
2.04187896741536e+004	(1.00428377898038e+002dB,1.78780551202006e+002°)
2.04658598456151e+004	(1.00429415288804e+002dB,1.78773967442979e+002°)
2.05130385250281e+004	(1.00430462577877e+002dB,1.78767319368699e+002°)
2.05603259625295e+004	(1.00431519895351e+002dB,1.78760606016225e+002°)
2.06077224088323e+004	(1.00432587373569e+002dB,1.78753826403396e+002°)
2.06552281152279e+004	(1.00433665147169e+002dB,1.78746979528348e+002°)
2.07028433335869e+004	(1.00434753353138e+002dB,1.78740064369028e+002°)
2.07505683163602e+004	(1.00435852130857e+002dB,1.78733079882681e+002°)
2.07984033165812e+004	(1.00436961622157e+002dB,1.78726025005331e+002°)
2.08463485878661e+004	(1.00438081971372e+002dB,1.78718898651243e+002°)
2.08944043844160e+004	(1.00439213325391e+002dB,1.78711699712367e+002°)
2.09425709610180e+004	(1.00440355833717e+002dB,1.78704427057769e+002°)
2.09908485730464e+004	(1.00441509648522e+002dB,1.78697079533039e+002°)
2.10392374764644e+004	(1.00442674924710e+002dB,1.78689655959687e+002°)
2.10877379278252e+004	(1.00443851819972e+002dB,1.78682155134516e+002°)
2.11363501842731e+004	(1.00445040494853e+002dB,1.78674575828977e+002°)
2.11850745035457e+004	(1.00446241112814e+002dB,1.78666916788505e+002°)
2.12339111439745e+004	(1.00447453840296e+002dB,1.78659176731829e+002°)
2.12828603644863e+004	(1.00448678846790e+002dB,1.78651354350268e+002°)
2.13319224246051e+004	(1.00449916304905e+002dB,1.78643448306999e+002°)
2.13810975844531e+004	(1.00451166390439e+002dB,1.78635457236303e+002°)
2.14303861047521e+004	(1.00452429282448e+002dB,1.78627379742789e+002°)
2.14797882468249e+004	(1.00453705163330e+002dB,1.78619214400588e+002°)
2.15293042725967e+004	(1.00454994218891e+002dB,1.78610959752527e+002°)
2.15789344445965e+004	(1.00456296638431e+002dB,1.78602614309272e+002°)
2.16286790259587e+004	(1.00457612614822e+002dB,1.78594176548444e+002°)
2.16785382804240e+004	(1.00458942344594e+002dB,1.78585644913706e+002°)
2.17285124723413e+004	(1.00460286028015e+002dB,1.78577017813820e+002°)
2.17786018666686e+004	(1.00461643869185e+002dB,1.78568293621675e+002°)
2.18288067289751e+004	(1.00463016076124e+002dB,1.78559470673274e+002°)
2.18791273254418e+004	(1.00464402860862e+002dB,1.78550547266699e+002°)
2.19295639228637e+004	(1.00465804439538e+002dB,1.78541521661034e+002°)
2.19801167886504e+004	(1.00467221032497e+002dB,1.78532392075249e+002°)
2.20307861908283e+004	(1.00468652864391e+002dB,1.78523156687054e+002°)
2.20815723980414e+004	(1.00470100164281e+002dB,1.78513813631705e+002°)
2.21324756795533e+004	(1.00471563165745e+002dB,1.78504361000777e+002°)
2.21834963052480e+004	(1.00473042106987e+002dB,1.78494796840888e+002°)
2.22346345456318e+004	(1.00474537230949e+002dB,1.78485119152380e+002°)
2.22858906718345e+004	(1.00476048785431e+002dB,1.78475325887958e+002°)
2.23372649556112e+004	(1.00477577023202e+002dB,1.78465414951274e+002°)
2.23887576693430e+004	(1.00479122202132e+002dB,1.78455384195466e+002°)
2.24403690860392e+004	(1.00480684585309e+002dB,1.78445231421645e+002°)
2.24920994793385e+004	(1.00482264441178e+002dB,1.78434954377322e+002°)
2.25439491235101e+004	(1.00483862043666e+002dB,1.78424550754787e+002°)
2.25959182934559e+004	(1.00485477672326e+002dB,1.78414018189420e+002°)
2.26480072647111e+004	(1.00487111612473e+002dB,1.78403354257950e+002°)
2.27002163134462e+004	(1.00488764155335e+002dB,1.78392556476640e+002°)
2.27525457164686e+004	(1.00490435598197e+002dB,1.78381622299412e+002°)
2.28049957512233e+004	(1.00492126244563e+002dB,1.78370549115904e+002°)
2.28575666957954e+004	(1.00493836404305e+002dB,1.78359334249445e+002°)
2.29102588289106e+004	(1.00495566393834e+002dB,1.78347974954965e+002°)
2.29630724299376e+004	(1.00497316536268e+002dB,1.78336468416816e+002°)
2.30160077788886e+004	(1.00499087161599e+002dB,1.78324811746521e+002°)
2.30690651564218e+004	(1.00500878606881e+002dB,1.78313001980428e+002°)
2.31222448438419e+004	(1.00502691216406e+002dB,1.78301036077277e+002°)
2.31755471231024e+004	(1.00504525341898e+002dB,1.78288910915672e+002°)
2.32289722768068e+004	(1.00506381342705e+002dB,1.78276623291458e+002°)
2.32825205882097e+004	(1.00508259586004e+002dB,1.78264169914993e+002°)
2.33361923412192e+004	(1.00510160447006e+002dB,1.78251547408309e+002°)
2.33899878203973e+004	(1.00512084309168e+002dB,1.78238752302167e+002°)
2.34439073109625e+004	(1.00514031564417e+002dB,1.78225781032990e+002°)
2.34979510987905e+004	(1.00516002613372e+002dB,1.78212629939674e+002°)
2.35521194704161e+004	(1.00517997865584e+002dB,1.78199295260274e+002°)
2.36064127130345e+004	(1.00520017739768e+002dB,1.78185773128547e+002°)
2.36608311145032e+004	(1.00522062664061e+002dB,1.78172059570361e+002°)
2.37153749633431e+004	(1.00524133076272e+002dB,1.78158150499954e+002°)
2.37700445487403e+004	(1.00526229424146e+002dB,1.78144041716037e+002°)
2.38248401605474e+004	(1.00528352165638e+002dB,1.78129728897737e+002°)
2.38797620892854e+004	(1.00530501769194e+002dB,1.78115207600368e+002°)
2.39348106261448e+004	(1.00532678714037e+002dB,1.78100473251021e+002°)
2.39899860629875e+004	(1.00534883490468e+002dB,1.78085521143973e+002°)
2.40452886923482e+004	(1.00537116600171e+002dB,1.78070346435892e+002°)
2.41007188074359e+004	(1.00539378556533e+002dB,1.78054944140844e+002°)
2.41562767021355e+004	(1.00541669884970e+002dB,1.78039309125076e+002°)
2.42119626710095e+004	(1.00543991123260e+002dB,1.78023436101574e+002°)
2.42677770092994e+004	(1.00546342821895e+002dB,1.78007319624385e+002°)
2.43237200129273e+004	(1.00548725544440e+002dB,1.77990954082681e+002°)
2.43797919784972e+004	(1.00551139867898e+002dB,1.77974333694566e+002°)
2.44359932032973e+004	(1.00553586383094e+002dB,1.77957452500603e+002°)
2.44923239853009e+004	(1.00556065695069e+002dB,1.77940304357042e+002°)
2.45487846231680e+004	(1.00558578423482e+002dB,1.77922882928754e+002°)
2.46053754162475e+004	(1.00561125203029e+002dB,1.77905181681826e+002°)
2.46620966645781e+004	(1.00563706683875e+002dB,1.77887193875828e+002°)
2.47189486688901e+004	(1.00566323532096e+002dB,1.77868912555712e+002°)
2.47759317306073e+004	(1.00568976430136e+002dB,1.77850330543336e+002°)
2.48330461518481e+004	(1.00571666077283e+002dB,1.77831440428589e+002°)
2.48902922354276e+004	(1.00574393190147e+002dB,1.77812234560094e+002°)
2.49476702848587e+004	(1.00577158503171e+002dB,1.77792705035467e+002°)
2.50051806043543e+004	(1.00579962769138e+002dB,1.77772843691109e+002°)
2.50628234988282e+004	(1.00582806759708e+002dB,1.77752642091500e+002°)
2.51205992738974e+004	(1.00585691265963e+002dB,1.77732091517973e+002°)
2.51785082358832e+004	(1.00588617098971e+002dB,1.77711182956936e+002°)
2.52365506918133e+004	(1.00591585090367e+002dB,1.77689907087509e+002°)
2.52947269494229e+004	(1.00594596092952e+002dB,1.77668254268543e+002°)
2.53530373171568e+004	(1.00597650981302e+002dB,1.77646214524989e+002°)
2.54114821041707e+004	(1.00600750652404e+002dB,1.77623777533574e+002°)
2.54700616203331e+004	(1.00603896026308e+002dB,1.77600932607745e+002°)
2.55287761762267e+004	(1.00607088046788e+002dB,1.77577668681841e+002°)
2.55876260831503e+004	(1.00610327682034e+002dB,1.77553974294442e+002°)
2.56466116531203e+004	(1.00613615925350e+002dB,1.77529837570848e+002°)
2.57057331988722e+004	(1.00616953795884e+002dB,1.77505246204637e+002°)
2.57649910338625e+004	(1.00620342339362e+002dB,1.77480187438241e+002°)
2.58243854722705e+004	(1.00623782628849e+002dB,1.77454648042486e+002°)
2.58839168289996e+004	(1.00627275765530e+002dB,1.77428614295027e+002°)
2.59435854196790e+004	(1.00630822879497e+002dB,1.77402071957613e+002°)
2.60033915606656e+004	(1.00634425130569e+002dB,1.77375006252100e+002°)
2.60633355690458e+004	(1.00638083709116e+002dB,1.77347401835150e+002°)
2.61234177626367e+004	(1.00641799836908e+002dB,1.77319242771509e+002°)
2.61836384599880e+004	(1.00645574767972e+002dB,1.77290512505797e+002°)
2.62439979803839e+004	(1.00649409789470e+002dB,1.77261193832688e+002°)
2.63044966438446e+004	(1.00653306222586e+002dB,1.77231268865401e+002°)
2.63651347711280e+004	(1.00657265423425e+002dB,1.77200719002369e+002°)
2.64259126837313e+004	(1.00661288783922e+002dB,1.77169524891978e+002°)
2.64868307038931e+004	(1.00665377732757e+002dB,1.77137666395243e+002°)
2.65478891545946e+004	(1.00669533736278e+002dB,1.77105122546277e+002°)
2.66090883595616e+004	(1.00673758299420e+002dB,1.77071871510415e+002°)
2.66704286432663e+004	(1.00678052966629e+002dB,1.77037890539816e+002°)
2.67319103309287e+004	(1.00682419322772e+002dB,1.77003155926386e+002°)
2.67935337485185e+004	(1.00686858994041e+002dB,1.76967642951822e+002°)
2.68552992227571e+004	(1.00691373648842e+002dB,1.76931325834575e+002°)
2.69172070811188e+004	(1.00695964998653e+002dB,1.76894177673529e+002°)
2.69792576518329e+004	(1.00700634798861e+002dB,1.76856170388143e+002°)
2.70414512638854e+004	(1.00705384849556e+002dB,1.76817274654806e+002°)
2.71037882470205e+004	(1.00710216996271e+002dB,1.76777459839143e+002°)
2.71662689317429e+004	(1.00715133130672e+002dB,1.76736693923955e+002°)
2.72288936493188e+004	(1.00720135191172e+002dB,1.76694943432488e+002°)
2.72916627317783e+004	(1.00725225163450e+002dB,1.76652173346671e+002°)
2.73545765119168e+004	(1.00730405080882e+002dB,1.76608347019957e+002°)
2.74176353232969e+004	(1.00735677024832e+002dB,1.76563426084347e+002°)
2.74808395002501e+004	(1.00741043124813e+002dB,1.76517370351157e+002°)
2.75441893778787e+004	(1.00746505558473e+002dB,1.76470137705059e+002°)
2.76076852920575e+004	(1.00752066551379e+002dB,1.76421683990849e+002°)
2.76713275794354e+004	(1.00757728376585e+002dB,1.76371962892396e+002°)
2.77351165774376e+004	(1.00763493353921e+002dB,1.76320925803146e+002°)
2.77990526242669e+004	(1.00769363848985e+002dB,1.76268521687513e+002°)
2.78631360589058e+004	(1.00775342271772e+002dB,1.76214696932415e+002°)
2.79273672211185e+004	(1.00781431074905e+002dB,1.76159395188184e+002°)
2.79917464514521e+004	(1.00787632751382e+002dB,1.76102557197953e+002°)
2.80562740912389e+004	(1.00793949831799e+002dB,1.76044120614608e+002°)
2.81209504825981e+004	(1.00800384880937e+002dB,1.75984019804246e+002°)
2.81857759684373e+004	(1.00806940493649e+002dB,1.75922185635040e+002°)
2.82507508924549e+004	(1.00813619289926e+002dB,1.75858545250266e+002°)
2.83158755991414e+004	(1.00820423909025e+002dB,1.75793021824173e+002°)
2.83811504337816e+004	(1.00827357002531e+002dB,1.75725534299218e+002°)
2.84465757424562e+004	(1.00834421226188e+002dB,1.75655997103079e+002°)
2.85121518720435e+004	(1.00841619230326e+002dB,1.75584319843697e+002°)
2.85778791702218e+004	(1.00848953648676e+002dB,1.75510406980446e+002°)
2.86437579854706e+004	(1.00856427085346e+002dB,1.75434157469332e+002°)
2.87097886670729e+004	(1.00864042099679e+002dB,1.75355464379961e+002°)
2.87759715651167e+004	(1.00871801188701e+002dB,1.75274214481760e+002°)
2.88423070304971e+004	(1.00879706766787e+002dB,1.75190287796746e+002°)
2.89087954149183e+004	(1.00887761142154e+002dB,1.75103557115851e+002°)
2.89754370708950e+004	(1.00895966489712e+002dB,1.75013887475548e+002°)
2.90422323517546e+004	(1.00904324819726e+002dB,1.74921135591226e+002°)
2.91091816116391e+004	(1.00912837941683e+002dB,1.74825149243423e+002°)
2.91762852055067e+004	(1.00921507422636e+002dB,1.74725766612698e+002°)
2.92435434891341e+004	(1.00930334539218e+002dB,1.74622815558513e+002°)
2.93109568191180e+004	(1.00939320222349e+002dB,1.74516112837114e+002°)
2.93785255528771e+004	(1.00948464993562e+002dB,1.74405463252963e+002°)
2.94462500486541e+004	(1.00957768891650e+002dB,1.74290658737818e+002°)
2.95141306655176e+004	(1.00967231388163e+002dB,1.74171477351080e+002°)
2.95821677633639e+004	(1.00976851290044e+002dB,1.74047682194533e+002°)
2.96503617029188e+004	(1.00986626627403e+002dB,1.73919020234129e+002°)
2.97187128457399e+004	(1.00996554524123e+002dB,1.73785221020943e+002°)
2.97872215542180e+004	(1.01006631048597e+002dB,1.73645995303008e+002°)
2.98558881915796e+004	(1.01016851041460e+002dB,1.73501033519276e+002°)
2.99247131218884e+004	(1.01027207916662e+002dB,1.73350004166656e+002°)
2.99936967100472e+004	(1.01037693431618e+002dB,1.73192552030858e+002°)
3.00628393218002e+004	(1.01048297421452e+002dB,1.73028296271768e+002°)
3.01321413237346e+004	(1.01059007491516e+002dB,1.72856828354316e+002°)
3.02016030832827e+004	(1.01069808661392e+002dB,1.72677709816477e+002°)
3.02712249687239e+004	(1.01080682952422e+002dB,1.72490469867130e+002°)
3.03410073491864e+004	(1.01091608909460e+002dB,1.72294602808452e+002°)
3.04109505946496e+004	(1.01102561045976e+002dB,1.72089565280243e+002°)
3.04810550759455e+004	(1.01113509199760e+002dB,1.71874773327756e+002°)
3.05513211647612e+004	(1.01124417784368e+002dB,1.71649599300311e+002°)
3.06217492336403e+004	(1.01135244918893e+002dB,1.71413368596021e+002°)
3.06923396559856e+004	(1.01145941415759e+002dB,1.71165356278889e+002°)
3.07630928060604e+004	(1.01156449602899e+002dB,1.70904783609323e+002°)
3.08340090589909e+004	(1.01166701952781e+002dB,1.70630814548908e+002°)
3.09050887907680e+004	(1.01176619486431e+002dB,1.70342552326617e+002°)
3.09763323782493e+004	(1.01186109915645e+002dB,1.70039036188372e+002°)
3.10477401991613e+004	(1.01195065481166e+002dB,1.69719238497537e+002°)
3.11193126321012e+004	(1.01203360438694e+002dB,1.69382062413537e+002°)
3.11910500565388e+004	(1.01210848138408e+002dB,1.69026340453239e+002°)
3.12629528528188e+004	(1.01217357637481e+002dB,1.68650834339857e+002°)
3.13350214021627e+004	(1.01222689779310e+002dB,1.68254236672680e+002°)
3.14072560866707e+004	(1.01226612668689e+002dB,1.67835175115035e+002°)
3.14796572893241e+004	(1.01228856470059e+002dB,1.67392220005670e+002°)
3.15522253939866e+004	(1.01229107458002e+002dB,1.66923896559412e+002°)
3.16249607854073e+004	(1.01227001257932e+002dB,1.66428703146286e+002°)
3.16978638492219e+004	(1.01222115233995e+002dB,1.65905137533477e+002°)
3.17709349719552e+004	(1.01213960015688e+002dB,1.65351733448546e+002°)
3.18441745410231e+004	(1.01201970211406e+002dB,1.64767110376548e+002°)
3.19175829447343e+004	(1.01185494445188e+002dB,1.64150040129045e+002°)
3.19911605722930e+004	(1.01163784983919e+002dB,1.63499534391859e+002°)
3.20649078138005e+004	(1.01135987410315e+002dB,1.62814958113736e+002°)
3.21388250602572e+004	(1.01101131058356e+002dB,1.62096174137394e+002°)
3.22129127035651e+004	(1.01058121278945e+002dB,1.61343724730313e+002°)
3.22871711365294e+004	(1.01005735058075e+002dB,1.60559055389233e+002°)
3.23616007528610e+004	(1.00942622072176e+002dB,1.59744785103520e+002°)
3.24362019471782e+004	(1.00867313921671e+002dB,1.58905024678611e+002°)
3.25109751150093e+004	(1.00778244987622e+002dB,1.58045740140021e+002°)
3.25859206527941e+004	(1.00673789011808e+002dB,1.57175151005067e+002°)
3.26610389578863e+004	(1.00552315943430e+002dB,1.56304142746197e+002°)
3.27363304285558e+004	(1.00412273580163e+002dB,1.55446658811354e+002°)
3.28117954639904e+004	(1.00252297731914e+002dB,1.54620020501939e+002°)
3.28874344642983e+004	(1.00071352676482e+002dB,1.53845104299557e+002°)
3.29632478305098e+004	(9.98689002022956e+001dB,1.53146288815050e+002°)
3.30392359645799e+004	(9.96450903252822e+001dB,1.52551072044526e+002°)
3.31153992693902e+004	(9.94009598942860e+001dB,1.52089260266433e+002°)
3.31917381487508e+004	(9.91386172849381e+001dB,1.51791649855570e+002°)
3.32682530074030e+004	(9.88613833542601e+001dB,1.51688169428386e+002°)
3.33449442510209e+004	(9.85738526412603e+001dB,1.51805526857088e+002°)
3.34218122862138e+004	(9.82818370803695e+001dB,1.52164513596805e+002°)
3.34988575205283e+004	(9.79921604819257e+001dB,1.52777247871347e+002°)
3.35760803624508e+004	(9.77122888517464e+001dB,1.53644763959741e+002°)
3.36534812214089e+004	(9.74498105726678e+001dB,1.54755433899523e+002°)
3.37310605077744e+004	(9.72118183967031e+001dB,1.56084684431193e+002°)
3.38088186328649e+004	(9.70042823287321e+001dB,1.57596300587711e+002°)
3.38867560089462e+004	(9.68315236068983e+001dB,1.59245290982170e+002°)
3.39648730492345e+004	(9.66958909895457e+001dB,1.60981908361157e+002°)
3.40431701678986e+004	(9.65976981007116e+001dB,1.62756113391193e+002°)
3.41216477800620e+004	(9.65354176276303e+001dB,1.64521672592241e+002°)
3.42003063018053e+004	(9.65060689446736e+001dB,1.66239235002161e+002°)
3.42791461501681e+004	(9.65057022292748e+001dB,1.67878059735658e+002°)
3.43581677431513e+004	(9.65298821496017e+001dB,1.69416422890377e+002°)
3.44373714997197e+004	(9.65740998092734e+001dB,1.70840990311064e+002°)
3.45167578398036e+004	(9.66340770560435e+001dB,1.72145550352006e+002°)
3.45963271843016e+004	(9.67059585693796e+001dB,1.73329479192741e+002°)
3.46760799550823e+004	(9.67864073457734e+001dB,1.74396217484889e+002°)
3.47560165749871e+004	(9.68726279018483e+001dB,1.75351926118728e+002°)
3.48361374678318e+004	(9.69623418925909e+001dB,1.76204394879616e+002°)
3.49164430584096e+004	(9.70537367726912e+001dB,1.76962213330462e+002°)
3.49969337724927e+004	(9.71454026231833e+001dB,1.77634177050777e+002°)
3.50776100368348e+004	(9.72362670837609e+001dB,1.78228887119953e+002°)
3.51584722791734e+004	(9.73255342195714e+001dB,1.78754498517518e+002°)
3.52395209282321e+004	(9.74126302359411e+001dB,1.79218577652088e+002°)
3.53207564137228e+004	(9.74971570679654e+001dB,1.79628036390533e+002°)
3.54021791663480e+004	(9.75788537577572e+001dB,1.79989117394097e+002°)
3.54837896178029e+004	(9.76575649468008e+001dB,-1.79692587840800e+002°)
3.55655882007780e+004	(9.77332155612769e+001dB,-1.79412101481412e+002°)
3.56475753489613e+004	(9.78057907165330e+001dB,-1.79165011521974e+002°)
3.57297514970406e+004	(9.78753199216115e+001dB,-1.78947419692735e+002°)
3.58121170807054e+004	(9.79418647688623e+001dB,-1.78755889015960e+002°)
3.58946725366501e+004	(9.80055094136788e+001dB,-1.78587393389248e+002°)
3.59774183025753e+004	(9.80663532670870e+001dB,-1.78439270541112e+002°)
3.60603548171909e+004	(9.81245054304088e+001dB,-1.78309179016796e+002°)
3.61434825202181e+004	(9.81800804931225e+001dB,-1.78195059409733e+002°)
3.62268018523916e+004	(9.82331953919615e+001dB,-1.78095099779906e+002°)
3.63103132554622e+004	(9.82839670923177e+001dB,-1.78007705039926e+002°)
3.63940171721992e+004	(9.83325109038960e+001dB,-1.77931470004563e+002°)
3.64779140463923e+004	(9.83789392831831e+001dB,-1.77865155763031e+002°)
3.65620043228544e+004	(9.84233610074229e+001dB,-1.77807669027293e+002°)
3.66462884474237e+004	(9.84658806300345e+001dB,-1.77758044121630e+002°)
3.67307668669664e+004	(9.85065981471042e+001dB,-1.77715427300298e+002°)
3.68154400293786e+004	(9.85456088198702e+001dB,-1.77679063105588e+002°)
3.69003083835890e+004	(9.85830031099594e+001dB,-1.77648282504111e+002°)
3.69853723795610e+004	(9.86188666933770e+001dB,-1.77622492561882e+002°)
3.70706324682957e+004	(9.86532805266898e+001dB,-1.77601167437071e+002°)
3.71560891018335e+004	(9.86863209453150e+001dB,-1.77583840482525e+002°)
3.72417427332568e+004	(9.87180597801758e+001dB,-1.77570097259820e+002°)
3.73275938166929e+004	(9.87485644859931e+001dB,-1.77559569277039e+002°)
3.74136428073155e+004	(9.87778982825160e+001dB,-1.77551928282197e+002°)
3.74998901613478e+004	(9.88061203184308e+001dB,-1.77546880984691e+002°)
3.75863363360648e+004	(9.88332858742788e+001dB,-1.77544164148188e+002°)
3.76729817897955e+004	(9.88594466215725e+001dB,-1.77543540097955e+002°)
3.77598269819253e+004	(9.88846509464219e+001dB,-1.77544792788883e+002°)
3.78468723728990e+004	(9.89089443265468e+001dB,-1.77547724638069e+002°)
3.79341184242224e+004	(9.89323697263424e+001dB,-1.77552154285480e+002°)
3.80215655984654e+004	(9.89549679576624e+001dB,-1.77557915293918e+002°)
