Freq.	V(va)/I(R3)
2.00000000000000e+004	(9.70749324120633e+001dB,1.78690276252536e+002°)
2.00461047615580e+004	(9.70757220220720e+001dB,1.78683391888548e+002°)
2.00923158055679e+004	(9.70765179385600e+001dB,1.78676443650630e+002°)
2.01386333770361e+004	(9.70773202252990e+001dB,1.78669430647697e+002°)
2.01850577215337e+004	(9.70781289468164e+001dB,1.78662351972362e+002°)
2.02315890851980e+004	(9.70789441684038e+001dB,1.78655206700567e+002°)
2.02782277147336e+004	(9.70797659561252e+001dB,1.78647993891214e+002°)
2.03249738574139e+004	(9.70805943768259e+001dB,1.78640712585773e+002°)
2.03718277610823e+004	(9.70814294981411e+001dB,1.78633361807889e+002°)
2.04187896741536e+004	(9.70822713885040e+001dB,1.78625940562977e+002°)
2.04658598456151e+004	(9.70831201171547e+001dB,1.78618447837802e+002°)
2.05130385250281e+004	(9.70839757541485e+001dB,1.78610882600051e+002°)
2.05603259625295e+004	(9.70848383703645e+001dB,1.78603243797894e+002°)
2.06077224088323e+004	(9.70857080375141e+001dB,1.78595530359529e+002°)
2.06552281152279e+004	(9.70865848281487e+001dB,1.78587741192722e+002°)
2.07028433335869e+004	(9.70874688156692e+001dB,1.78579875184325e+002°)
2.07505683163602e+004	(9.70883600743331e+001dB,1.78571931199789e+002°)
2.07984033165812e+004	(9.70892586792631e+001dB,1.78563908082657e+002°)
2.08463485878661e+004	(9.70901647064555e+001dB,1.78555804654049e+002°)
2.08944043844160e+004	(9.70910782327873e+001dB,1.78547619712127e+002°)
2.09425709610180e+004	(9.70919993360249e+001dB,1.78539352031550e+002°)
2.09908485730464e+004	(9.70929280948310e+001dB,1.78531000362911e+002°)
2.10392374764644e+004	(9.70938645887728e+001dB,1.78522563432155e+002°)
2.10877379278252e+004	(9.70948088983286e+001dB,1.78514039939992e+002°)
2.11363501842731e+004	(9.70957611048958e+001dB,1.78505428561275e+002°)
2.11850745035457e+004	(9.70967212907969e+001dB,1.78496727944380e+002°)
2.12339111439745e+004	(9.70976895392869e+001dB,1.78487936710556e+002°)
2.12828603644863e+004	(9.70986659345593e+001dB,1.78479053453254e+002°)
2.13319224246051e+004	(9.70996505617524e+001dB,1.78470076737453e+002°)
2.13810975844531e+004	(9.71006435069554e+001dB,1.78461005098943e+002°)
2.14303861047521e+004	(9.71016448572134e+001dB,1.78451837043609e+002°)
2.14797882468249e+004	(9.71026547005329e+001dB,1.78442571046682e+002°)
2.15293042725967e+004	(9.71036731258863e+001dB,1.78433205551967e+002°)
2.15789344445965e+004	(9.71047002232166e+001dB,1.78423738971059e+002°)
2.16286790259587e+004	(9.71057360834408e+001dB,1.78414169682522e+002°)
2.16785382804240e+004	(9.71067807984538e+001dB,1.78404496031057e+002°)
2.17285124723413e+004	(9.71078344611308e+001dB,1.78394716326632e+002°)
2.17786018666686e+004	(9.71088971653296e+001dB,1.78384828843599e+002°)
2.18288067289751e+004	(9.71099690058927e+001dB,1.78374831819775e+002°)
2.18791273254418e+004	(9.71110500786476e+001dB,1.78364723455499e+002°)
2.19295639228637e+004	(9.71121404804077e+001dB,1.78354501912660e+002°)
2.19801167886504e+004	(9.71132403089715e+001dB,1.78344165313696e+002°)
2.20307861908283e+004	(9.71143496631212e+001dB,1.78333711740562e+002°)
2.20815723980414e+004	(9.71154686426210e+001dB,1.78323139233667e+002°)
2.21324756795533e+004	(9.71165973482133e+001dB,1.78312445790777e+002°)
2.21834963052480e+004	(9.71177358816150e+001dB,1.78301629365883e+002°)
2.22346345456318e+004	(9.71188843455124e+001dB,1.78290687868039e+002°)
2.22858906718345e+004	(9.71200428435545e+001dB,1.78279619160160e+002°)
2.23372649556112e+004	(9.71212114803458e+001dB,1.78268421057780e+002°)
2.23887576693430e+004	(9.71223903614370e+001dB,1.78257091327778e+002°)
2.24403690860392e+004	(9.71235795933151e+001dB,1.78245627687058e+002°)
2.24920994793385e+004	(9.71247792833915e+001dB,1.78234027801189e+002°)
2.25439491235101e+004	(9.71259895399887e+001dB,1.78222289283002e+002°)
2.25959182934559e+004	(9.71272104723252e+001dB,1.78210409691143e+002°)
2.26480072647111e+004	(9.71284421904985e+001dB,1.78198386528579e+002°)
2.27002163134462e+004	(9.71296848054667e+001dB,1.78186217241053e+002°)
2.27525457164686e+004	(9.71309384290274e+001dB,1.78173899215497e+002°)
2.28049957512233e+004	(9.71322031737947e+001dB,1.78161429778383e+002°)
2.28575666957954e+004	(9.71334791531739e+001dB,1.78148806194031e+002°)
2.29102588289106e+004	(9.71347664813339e+001dB,1.78136025662853e+002°)
2.29630724299376e+004	(9.71360652731764e+001dB,1.78123085319543e+002°)
2.30160077788886e+004	(9.71373756443030e+001dB,1.78109982231211e+002°)
2.30690651564218e+004	(9.71386977109786e+001dB,1.78096713395447e+002°)
2.31222448438419e+004	(9.71400315900923e+001dB,1.78083275738327e+002°)
2.31755471231024e+004	(9.71413773991147e+001dB,1.78069666112353e+002°)
2.32289722768068e+004	(9.71427352560509e+001dB,1.78055881294318e+002°)
2.32825205882097e+004	(9.71441052793912e+001dB,1.78041917983107e+002°)
2.33361923412192e+004	(9.71454875880561e+001dB,1.78027772797417e+002°)
2.33899878203973e+004	(9.71468823013380e+001dB,1.78013442273403e+002°)
2.34439073109625e+004	(9.71482895388381e+001dB,1.77998922862247e+002°)
2.34979510987905e+004	(9.71497094203980e+001dB,1.77984210927634e+002°)
2.35521194704161e+004	(9.71511420660270e+001dB,1.77969302743156e+002°)
2.36064127130345e+004	(9.71525875958224e+001dB,1.77954194489613e+002°)
2.36608311145032e+004	(9.71540461298858e+001dB,1.77938882252227e+002°)
2.37153749633431e+004	(9.71555177882313e+001dB,1.77923362017764e+002°)
2.37700445487403e+004	(9.71570026906883e+001dB,1.77907629671542e+002°)
2.38248401605474e+004	(9.71585009567971e+001dB,1.77891680994353e+002°)
2.38797620892854e+004	(9.71600127056961e+001dB,1.77875511659258e+002°)
2.39348106261448e+004	(9.71615380560020e+001dB,1.77859117228285e+002°)
2.39899860629875e+004	(9.71630771256809e+001dB,1.77842493149000e+002°)
2.40452886923482e+004	(9.71646300319108e+001dB,1.77825634750963e+002°)
2.41007188074359e+004	(9.71661968909341e+001dB,1.77808537242050e+002°)
2.41562767021355e+004	(9.71677778178999e+001dB,1.77791195704654e+002°)
2.42119626710095e+004	(9.71693729266957e+001dB,1.77773605091740e+002°)
2.42677770092994e+004	(9.71709823297673e+001dB,1.77755760222763e+002°)
2.43237200129273e+004	(9.71726061379263e+001dB,1.77737655779439e+002°)
2.43797919784972e+004	(9.71742444601448e+001dB,1.77719286301360e+002°)
2.44359932032973e+004	(9.71758974033358e+001dB,1.77700646181453e+002°)
2.44923239853009e+004	(9.71775650721191e+001dB,1.77681729661268e+002°)
2.45487846231680e+004	(9.71792475685711e+001dB,1.77662530826101e+002°)
2.46053754162475e+004	(9.71809449919579e+001dB,1.77643043599930e+002°)
2.46620966645781e+004	(9.71826574384507e+001dB,1.77623261740168e+002°)
2.47189486688901e+004	(9.71843850008218e+001dB,1.77603178832228e+002°)
2.47759317306073e+004	(9.71861277681209e+001dB,1.77582788283873e+002°)
2.48330461518481e+004	(9.71878858253285e+001dB,1.77562083319369e+002°)
2.48902922354276e+004	(9.71896592529883e+001dB,1.77541056973411e+002°)
2.49476702848587e+004	(9.71914481268134e+001dB,1.77519702084831e+002°)
2.50051806043543e+004	(9.71932525172667e+001dB,1.77498011290059e+002°)
2.50628234988282e+004	(9.71950724891146e+001dB,1.77475977016346e+002°)
2.51205992738974e+004	(9.71969081009495e+001dB,1.77453591474732e+002°)
2.51785082358832e+004	(9.71987594046818e+001dB,1.77430846652744e+002°)
2.52365506918133e+004	(9.72006264449979e+001dB,1.77407734306820e+002°)
2.52947269494229e+004	(9.72025092587820e+001dB,1.77384245954444e+002°)
2.53530373171568e+004	(9.72044078745003e+001dB,1.77360372865989e+002°)
2.54114821041707e+004	(9.72063223115437e+001dB,1.77336106056238e+002°)
2.54700616203331e+004	(9.72082525795274e+001dB,1.77311436275590e+002°)
2.55287761762267e+004	(9.72101986775438e+001dB,1.77286354000932e+002°)
2.55876260831503e+004	(9.72121605933659e+001dB,1.77260849426152e+002°)
2.56466116531203e+004	(9.72141383025980e+001dB,1.77234912452300e+002°)
2.57057331988722e+004	(9.72161317677694e+001dB,1.77208532677364e+002°)
2.57649910338625e+004	(9.72181409373687e+001dB,1.77181699385662e+002°)
2.58243854722705e+004	(9.72201657448126e+001dB,1.77154401536817e+002°)
2.58839168289996e+004	(9.72222061073470e+001dB,1.77126627754321e+002°)
2.59435854196790e+004	(9.72242619248738e+001dB,1.77098366313654e+002°)
2.60033915606656e+004	(9.72263330787000e+001dB,1.77069605129944e+002°)
2.60633355690458e+004	(9.72284194302022e+001dB,1.77040331745170e+002°)
2.61234177626367e+004	(9.72305208194018e+001dB,1.77010533314854e+002°)
2.61836384599880e+004	(9.72326370634449e+001dB,1.76980196594267e+002°)
2.62439979803839e+004	(9.72347679549785e+001dB,1.76949307924093e+002°)
2.63044966438446e+004	(9.72369132604181e+001dB,1.76917853215562e+002°)
2.63651347711280e+004	(9.72390727180978e+001dB,1.76885817935009e+002°)
2.64259126837313e+004	(9.72412460362950e+001dB,1.76853187087855e+002°)
2.64868307038931e+004	(9.72434328911204e+001dB,1.76819945201995e+002°)
2.65478891545946e+004	(9.72456329242652e+001dB,1.76786076310546e+002°)
2.66090883595616e+004	(9.72478457405935e+001dB,1.76751563933978e+002°)
2.66704286432663e+004	(9.72500709055707e+001dB,1.76716391061564e+002°)
2.67319103309287e+004	(9.72523079425152e+001dB,1.76680540132165e+002°)
2.67935337485185e+004	(9.72545563296614e+001dB,1.76643993014315e+002°)
2.68552992227571e+004	(9.72568154970192e+001dB,1.76606730985581e+002°)
2.69172070811188e+004	(9.72590848230184e+001dB,1.76568734711204e+002°)
2.69792576518329e+004	(9.72613636309186e+001dB,1.76529984221978e+002°)
2.70414512638854e+004	(9.72636511849710e+001dB,1.76490458891369e+002°)
2.71037882470205e+004	(9.72659466863126e+001dB,1.76450137411853e+002°)
2.71662689317429e+004	(9.72682492685737e+001dB,1.76408997770461e+002°)
2.72288936493188e+004	(9.72705579931778e+001dB,1.76367017223527e+002°)
2.72916627317783e+004	(9.72728718443121e+001dB,1.76324172270623e+002°)
2.73545765119168e+004	(9.72751897235438e+001dB,1.76280438627685e+002°)
2.74176353232969e+004	(9.72775104440571e+001dB,1.76235791199324e+002°)
2.74808395002501e+004	(9.72798327244820e+001dB,1.76190204050329e+002°)
2.75441893778787e+004	(9.72821551822873e+001dB,1.76143650376378e+002°)
2.76076852920575e+004	(9.72844763267023e+001dB,1.76096102473958e+002°)
2.76713275794354e+004	(9.72867945511359e+001dB,1.76047531709532e+002°)
2.77351165774376e+004	(9.72891081250547e+001dB,1.75997908487973e+002°)
2.77990526242669e+004	(9.72914151852796e+001dB,1.75947202220321e+002°)
2.78631360589058e+004	(9.72937137266591e+001dB,1.75895381290891e+002°)
2.79273672211185e+004	(9.72960015920737e+001dB,1.75842413023823e+002°)
2.79917464514521e+004	(9.72982764617205e+001dB,1.75788263649130e+002°)
2.80562740912389e+004	(9.73005358416262e+001dB,1.75732898268362e+002°)
2.81209504825981e+004	(9.73027770513322e+001dB,1.75676280819980e+002°)
2.81857759684373e+004	(9.73049972106888e+001dB,1.75618374044587e+002°)
2.82507508924549e+004	(9.73071932256963e+001dB,1.75559139450182e+002°)
2.83158755991414e+004	(9.73093617733196e+001dB,1.75498537277616e+002°)
2.83811504337816e+004	(9.73114992852046e+001dB,1.75436526466473e+002°)
2.84465757424562e+004	(9.73136019302149e+001dB,1.75373064621649e+002°)
2.85121518720435e+004	(9.73156655957033e+001dB,1.75308107980906e+002°)
2.85778791702218e+004	(9.73176858674274e+001dB,1.75241611383765e+002°)
2.86437579854706e+004	(9.73196580080128e+001dB,1.75173528242133e+002°)
2.87097886670729e+004	(9.73215769338589e+001dB,1.75103810513118e+002°)
2.87759715651167e+004	(9.73234371903799e+001dB,1.75032408674568e+002°)
2.88423070304971e+004	(9.73252329254629e+001dB,1.74959271703940e+002°)
2.89087954149183e+004	(9.73269578610206e+001dB,1.74884347061183e+002°)
2.89754370708950e+004	(9.73286052625097e+001dB,1.74807580676426e+002°)
2.90422323517546e+004	(9.73301679062773e+001dB,1.74728916943383e+002°)
2.91091816116391e+004	(9.73316380445929e+001dB,1.74648298719479e+002°)
2.91762852055067e+004	(9.73330073682169e+001dB,1.74565667333877e+002°)
2.92435434891341e+004	(9.73342669663493e+001dB,1.74480962604715e+002°)
2.93109568191180e+004	(9.73354072837988e+001dB,1.74394122867054e+002°)
2.93785255528771e+004	(9.73364180752076e+001dB,1.74305085013216e+002°)
2.94462500486541e+004	(9.73372883561633e+001dB,1.74213784547433e+002°)
2.95141306655176e+004	(9.73380063510282e+001dB,1.74120155656960e+002°)
2.95821677633639e+004	(9.73385594373180e+001dB,1.74024131302061e+002°)
2.96503617029188e+004	(9.73389340864624e+001dB,1.73925643327619e+002°)
2.97187128457399e+004	(9.73391158007889e+001dB,1.73824622599415e+002°)
2.97872215542180e+004	(9.73390890465803e+001dB,1.73720999168518e+002°)
2.98558881915796e+004	(9.73388371830696e+001dB,1.73614702467623e+002°)
2.99247131218884e+004	(9.73383423872626e+001dB,1.73505661543643e+002°)
2.99936967100472e+004	(9.73375855744984e+001dB,1.73393805331320e+002°)
3.00628393218002e+004	(9.73365463147044e+001dB,1.73279062973195e+002°)
3.01321413237346e+004	(9.73352027443404e+001dB,1.73161364191834e+002°)
3.02016030832827e+004	(9.73335314740939e+001dB,1.73040639720850e+002°)
3.02712249687239e+004	(9.73315074924562e+001dB,1.72916821801933e+002°)
3.03410073491864e+004	(9.73291040654058e+001dB,1.72789844755822e+002°)
3.04109505946496e+004	(9.73262926325317e+001dB,1.72659645635898e+002°)
3.04810550759455e+004	(9.73230427000672e+001dB,1.72526164973904e+002°)
3.05513211647612e+004	(9.73193217314656e+001dB,1.72389347628058e+002°)
3.06217492336403e+004	(9.73150950363406e+001dB,1.72249143744699e+002°)
3.06923396559856e+004	(9.73103256588237e+001dB,1.72105509845373e+002°)
3.07630928060604e+004	(9.73049742666597e+001dB,1.71958410052070e+002°)
3.08340090589909e+004	(9.72989990426733e+001dB,1.71807817463992e+002°)
3.09050887907680e+004	(9.72923555806086e+001dB,1.71653715699848e+002°)
3.09763323782493e+004	(9.72849967877585e+001dB,1.71496100620054e+002°)
3.10477401991613e+004	(9.72768727972882e+001dB,1.71334982243423e+002°)
3.11193126321012e+004	(9.72679308937014e+001dB,1.71170386872775e+002°)
3.11910500565388e+004	(9.72581154555145e+001dB,1.71002359443351e+002°)
3.12629528528188e+004	(9.72473679198927e+001dB,1.70830966106807e+002°)
3.13350214021627e+004	(9.72356267747604e+001dB,1.70656297061810e+002°)
3.14072560866707e+004	(9.72228275847235e+001dB,1.70478469639651e+002°)
3.14796572893241e+004	(9.72089030580291e+001dB,1.70297631649662e+002°)
3.15522253939866e+004	(9.71937831627191e+001dB,1.70113964984381e+002°)
3.16249607854073e+004	(9.71773953010950e+001dB,1.69927689478102e+002°)
3.16978638492219e+004	(9.71596645525687e+001dB,1.69739067004477e+002°)
3.17709349719552e+004	(9.71405139958860e+001dB,1.69548405788909e+002°)
3.18441745410231e+004	(9.71198651225317e+001dB,1.69356064899401e+002°)
3.19175829447343e+004	(9.70976383537797e+001dB,1.69162458865072e+002°)
3.19911605722930e+004	(9.70737536742624e+001dB,1.68968062354547e+002°)
3.20649078138005e+004	(9.70481313949944e+001dB,1.68773414826817e+002°)
3.21388250602572e+004	(9.70206930583792e+001dB,1.68579125044970e+002°)
3.22129127035651e+004	(9.69913624967134e+001dB,1.68385875318605e+002°)
3.22871711365294e+004	(9.69600670539315e+001dB,1.68194425314183e+002°)
3.23616007528610e+004	(9.69267389776442e+001dB,1.68005615244781e+002°)
3.24362019471782e+004	(9.68913169847466e+001dB,1.67820368222605e+002°)
3.25109751150093e+004	(9.68537479988668e+001dB,1.67639691530763e+002°)
3.25859206527941e+004	(9.68139890515542e+001dB,1.67464676546914e+002°)
3.26610389578863e+004	(9.67720093313054e+001dB,1.67296497032828e+002°)
3.27363304285558e+004	(9.67277923552766e+001dB,1.67136405493434e+002°)
3.28117954639904e+004	(9.66813382279489e+001dB,1.66985727309546e+002°)
3.28874344642983e+004	(9.66326659393019e+001dB,1.66845852363649e+002°)
3.29632478305098e+004	(9.65818156426244e+001dB,1.66718223911194e+002°)
3.30392359645799e+004	(9.65288508394879e+001dB,1.66604324503941e+002°)
3.31153992693902e+004	(9.64738603874145e+001dB,1.66505658849526e+002°)
3.31917381487508e+004	(9.64169602353129e+001dB,1.66423733594016e+002°)
3.32682530074030e+004	(9.63582947839596e+001dB,1.66360034141602e+002°)
3.33449442510209e+004	(9.62980377648652e+001dB,1.66315998775469e+002°)
3.34218122862138e+004	(9.62363925320321e+001dB,1.66292990511632e+002°)
3.34988575205283e+004	(9.61735916685012e+001dB,1.66292267295470e+002°)
3.35760803624508e+004	(9.61098958240869e+001dB,1.66314951328548e+002°)
3.36534812214089e+004	(9.60455917227926e+001dB,1.66361998478143e+002°)
3.37310605077744e+004	(9.59809893079969e+001dB,1.66434168858967e+002°)
3.38088186328649e+004	(9.59164180298254e+001dB,1.66531999770418e+002°)
3.38867560089462e+004	(9.58522223206208e+001dB,1.66655782208618e+002°)
3.39648730492345e+004	(9.57887563487761e+001dB,1.66805542138400e+002°)
3.40431701678986e+004	(9.57263781854088e+001dB,1.66981027598557e+002°)
3.41216477800620e+004	(9.56654435589785e+001dB,1.67181702522550e+002°)
3.42003063018053e+004	(9.56062994063954e+001dB,1.67406747892093e+002°)
3.42791461501681e+004	(9.55492774520858e+001dB,1.67655070516166e+002°)
3.43581677431513e+004	(9.54946880561838e+001dB,1.67925319363547e+002°)
3.44373714997197e+004	(9.54428145678634e+001dB,1.68215908999263e+002°)
3.45167578398036e+004	(9.53939083994859e+001dB,1.68525049313530e+002°)
3.45963271843016e+004	(9.53481850028430e+001dB,1.68850780415133e+002°)
3.46760799550823e+004	(9.53058208828386e+001dB,1.69191011315217e+002°)
3.47560165749871e+004	(9.52669517301246e+001dB,1.69543560871415e+002°)
3.48361374678318e+004	(9.52316716968433e+001dB,1.69906199406316e+002°)
3.49164430584096e+004	(9.52000337833173e+001dB,1.70276689459166e+002°)
3.49969337724927e+004	(9.51720512525226e+001dB,1.70652824266314e+002°)
3.50776100368348e+004	(9.51476999469668e+001dB,1.71032462777587e+002°)
3.51584722791734e+004	(9.51269213515692e+001dB,1.71413560279940e+002°)
3.52395209282321e+004	(9.51096262274273e+001dB,1.71794193991809e+002°)
3.53207564137228e+004	(9.50956986348719e+001dB,1.72172583287038e+002°)
3.54021791663480e+004	(9.50850001688089e+001dB,1.72547104484793e+002°)
3.54837896178029e+004	(9.50773742430889e+001dB,1.72916300384910e+002°)
3.55655882007780e+004	(9.50726502811751e+001dB,1.73278884925603e+002°)
3.56475753489613e+004	(9.50706476951887e+001dB,1.73633743487289e+002°)
3.57297514970406e+004	(9.50711795621593e+001dB,1.73979929462229e+002°)
3.58121170807054e+004	(9.50740559330050e+001dB,1.74316657758643e+002°)
3.58946725366501e+004	(9.50790867348813e+001dB,1.74643295916358e+002°)
3.59774183025753e+004	(9.50860842500511e+001dB,1.74959353486568e+002°)
3.60603548171909e+004	(9.50948651737409e+001dB,1.75264470278595e+002°)
3.61434825202181e+004	(9.51052522693127e+001dB,1.75558404008425e+002°)
3.62268018523916e+004	(9.51170756514142e+001dB,1.75841017802899e+002°)
3.63103132554622e+004	(9.51301737365416e+001dB,1.76112267924259e+002°)
3.63940171721992e+004	(9.51443939055813e+001dB,1.76372191986751e+002°)
3.64779140463923e+004	(9.51595929243033e+001dB,1.76620897845293e+002°)
3.65620043228544e+004	(9.51756371655469e+001dB,1.76858553252438e+002°)
3.66462884474237e+004	(9.51924026714393e+001dB,1.77085376311599e+002°)
3.67307668669664e+004	(9.52097750865077e+001dB,1.77301626708522e+002°)
3.68154400293786e+004	(9.52276494845680e+001dB,1.77507597682428e+002°)
3.69003083835890e+004	(9.52459301055522e+001dB,1.77703608700552e+002°)
3.69853723795610e+004	(9.52645300142901e+001dB,1.77889998816414e+002°)
3.70706324682957e+004	(9.52833706920570e+001dB,1.78067120711491e+002°)
3.71560891018335e+004	(9.53023815728139e+001dB,1.78235335431519e+002°)
3.72417427332568e+004	(9.53214995381375e+001dB,1.78395007826884e+002°)
3.73275938166929e+004	(9.53406683864853e+001dB,1.78546502692234e+002°)
3.74136428073155e+004	(9.53598382927113e+001dB,1.78690181578726e+002°)
3.74998901613478e+004	(9.53789652724109e+001dB,1.78826400230213e+002°)
3.75863363360648e+004	(9.53980106630766e+001dB,1.78955506577518e+002°)
3.76729817897955e+004	(9.54169406308177e+001dB,1.79077839215620e+002°)
3.77598269819253e+004	(9.54357257081764e+001dB,1.79193726286980e+002°)
3.78468723728990e+004	(9.54543403657985e+001dB,1.79303484698748e+002°)
3.79341184242224e+004	(9.54727626185909e+001dB,1.79407419609702e+002°)
3.80215655984654e+004	(9.54909736655528e+001dB,1.79505824132507e+002°)
3.81092143592644e+004	(9.55089575615877e+001dB,1.79598979206399e+002°)
