Freq.	(-V(vs)*1000/(V(vi)-V(vs)))-1000
2.00000000000000e+001	(6.46326135133373e+001dB,-1.10371917363196e+001°)
2.04658598456151e+001	(6.46208115592607e+001dB,-1.12807369905686e+001°)
2.09425709610180e+001	(6.46084878812874e+001dB,-1.15289989435756e+001°)
2.14303861047521e+001	(6.45956214080677e+001dB,-1.17820242336097e+001°)
2.19295639228637e+001	(6.45821903878209e+001dB,-1.20398568083757e+001°)
2.24403690860393e+001	(6.45681723808611e+001dB,-1.23025376720505e+001°)
2.29630724299377e+001	(6.45535442534836e+001dB,-1.25701046202743e+001°)
2.34979510987906e+001	(6.45382821733733e+001dB,-1.28425919630397e+001°)
2.40452886923483e+001	(6.45223616067025e+001dB,-1.31200302354897e+001°)
2.46053754162476e+001	(6.45057573170947e+001dB,-1.34024458967085e+001°)
2.51785082358833e+001	(6.44884433666404e+001dB,-1.36898610166683e+001°)
2.57649910338627e+001	(6.44703931191561e+001dB,-1.39822929515943e+001°)
2.63651347711281e+001	(6.44515792458854e+001dB,-1.42797540081022e+001°)
2.69792576518331e+001	(6.44319737338484e+001dB,-1.45822510965768e+001°)
2.76076852920577e+001	(6.44115478970490e+001dB,-1.48897853743762e+001°)
2.82507508924551e+001	(6.43902723907522e+001dB,-1.52023518795723e+001°)
2.89087954149185e+001	(6.43681172290501e+001dB,-1.55199391560752e+001°)
2.95821677633641e+001	(6.43450518059314e+001dB,-1.58425288711338e+001°)
3.02712249687242e+001	(6.43210449200702e+001dB,-1.61700954263499e+001°)
3.09763323782496e+001	(6.42960648035475e+001dB,-1.65026055635113e+001°)
3.16978638492223e+001	(6.42700791547125e+001dB,-1.68400179667048e+001°)
3.24362019471786e+001	(6.42430551753818e+001dB,-1.71822828623451e+001°)
3.31917381487512e+001	(6.42149596125672e+001dB,-1.75293416189247e+001°)
3.39648730492349e+001	(6.41857588049077e+001dB,-1.78811263484696e+001°)
3.47560165749875e+001	(6.41554187339632e+001dB,-1.82375595118544e+001°)
3.55655882007784e+001	(6.41239050805131e+001dB,-1.85985535303113e+001°)
3.63940171721997e+001	(6.40911832859735e+001dB,-1.89640104056307e+001°)
3.72417427332573e+001	(6.40572186190268e+001dB,-1.93338213517169e+001°)
3.81092143592649e+001	(6.40219762475233e+001dB,-1.97078664403161e+001°)
3.89968919951609e+001	(6.39854213156827e+001dB,-2.00860142638732e+001°)
3.99052462993776e+001	(6.39475190265876e+001dB,-2.04681216185994e+001°)
4.08347588933906e+001	(6.39082347299204e+001dB,-2.08540332109439e+001°)
4.17859226170808e+001	(6.38675340148500e+001dB,-2.12435813907390e+001°)
4.27592417900446e+001	(6.38253828079327e+001dB,-2.16365859143583e+001°)
4.37552324789910e+001	(6.37817474758388e+001dB,-2.20328537412506e+001°)
4.47744227713668e+001	(6.37365949326674e+001dB,-2.24321788672140e+001°)
4.58173530553554e+001	(6.36898927515594e+001dB,-2.28343421977408e+001°)
4.68845763063984e+001	(6.36416092802643e+001dB,-2.32391114646890e+001°)
4.79766583803898e+001	(6.35917137602615e+001dB,-2.36462411894249e+001°)
4.90941783137006e+001	(6.35401764489830e+001dB,-2.40554726954262e+001°)
5.02377286301916e+001	(6.34869687446317e+001dB,-2.44665341731380e+001°)
5.14079156553772e+001	(6.34320633130362e+001dB,-2.48791407996413e+001°)
5.26053598379076e+001	(6.33754342159354e+001dB,-2.52929949153961e+001°)
5.38306960785383e+001	(6.33170570400394e+001dB,-2.57077862600101e+001°)
5.50845740667633e+001	(6.32569090261745e+001dB,-2.61231922686128e+001°)
5.63676586252890e+001	(6.31949691977793e+001dB,-2.65388784300082e+001°)
5.76806300625321e+001	(6.31312184879953e+001dB,-2.69544987073458e+001°)
5.90241845333277e+001	(6.30656398645680e+001dB,-2.73696960215823e+001°)
6.03990344080403e+001	(6.29982184517591e+001dB,-2.77841027975096e+001°)
6.18059086502718e+001	(6.29289416484683e+001dB,-2.81973415716200e+001°)
6.32455532033675e+001	(6.28577992417572e+001dB,-2.86090256605535e+001°)
6.47187313859256e+001	(6.27847835149861e+001dB,-2.90187598883443e+001°)
6.62262242965182e+001	(6.27098893497881e+001dB,-2.94261413701685e+001°)
6.77688312278404e+001	(6.26331143211393e+001dB,-2.98307603497725e+001°)
6.93473700905062e+001	(6.25544587848178e+001dB,-3.02322010872774e+001°)
7.09626778467150e+001	(6.24739259565943e+001dB,-3.06300427935906e+001°)
7.26156109540202e+001	(6.23915219825510e+001dB,-3.10238606072232e+001°)
7.43070458194344e+001	(6.23072559999885e+001dB,-3.14132266089317e+001°)
7.60378792641121e+001	(6.22211401884490e+001dB,-3.17977108692626e+001°)
7.78090289988560e+001	(6.21331898104610e+001dB,-3.21768825238017e+001°)
7.96214341106993e+001	(6.20434232416876e+001dB,-3.25503108707062e+001°)
8.14760555608224e+001	(6.19518619902440e+001dB,-3.29175664849429e+001°)
8.33738766940670e+001	(6.18585307050356e+001dB,-3.32782223435665e+001°)
8.53159037603184e+001	(6.17634571730487e+001dB,-3.36318549563389e+001°)
8.73031664480331e+001	(6.16666723056156e+001dB,-3.39780454960458e+001°)
8.93367184301925e+001	(6.15682101137505e+001dB,-3.43163809229593e+001°)
9.14176379229749e+001	(6.14681076727369e+001dB,-3.46464550980715e+001°)
9.35470282574395e+001	(6.13664050762150e+001dB,-3.49678698799436e+001°)
9.57260184645275e+001	(6.12631453800880e+001dB,-3.52802362002905e+001°)
9.79557638736891e+001	(6.11583745366256e+001dB,-3.55831751137413e+001°)
1.00237446725454e+002	(6.10521413191944e+001dB,-3.58763188175706e+001°)
1.02572276798273e+002	(6.09444972380918e+001dB,-3.61593116375851e+001°)
1.04961492049954e+002	(6.08354964479934e+001dB,-3.64318109767511e+001°)
1.07406359274050e+002	(6.07251956475534e+001dB,-3.66934882235723e+001°)
1.09908174771525e+002	(6.06136539717135e+001dB,-3.69440296176476e+001°)
1.12468265038070e+002	(6.05009328772877e+001dB,-3.71831370702565e+001°)
1.15087987467431e+002	(6.03870960223915e+001dB,-3.74105289382276e+001°)
1.17768731071118e+002	(6.02722091402766e+001dB,-3.76259407497280e+001°)
1.20511917214871e+002	(6.01563399081227e+001dB,-3.78291258809739e+001°)
1.23319000372296e+002	(6.00395578113159e+001dB,-3.80198561831921e+001°)
1.26191468896038e+002	(5.99219340037208e+001dB,-3.81979225594471e+001°)
1.29130845806931e+002	(5.98035411644267e+001dB,-3.83631354912094e+001°)
1.32138689601519e+002	(5.96844533514140e+001dB,-3.85153255147417e+001°)
1.35216595078396e+002	(5.95647458525582e+001dB,-3.86543436475474e+001°)
1.38366194183787e+002	(5.94444950343523e+001dB,-3.87800617652519e+001°)
1.41589156876827e+002	(5.93237781886955e+001dB,-3.88923729293573e+001°)
1.44887192014998e+002	(5.92026733780656e+001dB,-3.89911916663548e+001°)
1.48262048260183e+002	(5.90812592793620e+001dB,-3.90764541986772e+001°)
1.51715515005836e+002	(5.89596150266780e+001dB,-3.91481186279357e+001°)
1.55249423325738e+002	(5.88378200532409e+001dB,-3.92061650708259e+001°)
1.58865646944856e+002	(5.87159539327385e+001dB,-3.92505957479932e+001°)
1.62566103232819e+002	(5.85940962202386e+001dB,-3.92814350260432e+001°)
1.66352754220534e+002	(5.84723262928989e+001dB,-3.92987294127633e+001°)
1.70227607640475e+002	(5.83507231906636e+001dB,-3.93025475054907e+001°)
1.74192717991216e+002	(5.82293654571465e+001dB,-3.92929798924425e+001°)
1.78250187626749e+002	(5.81083309809090e+001dB,-3.92701390067001e+001°)
1.82402167871181e+002	(5.79876968373554e+001dB,-3.92341589324374e+001°)
1.86650860159398e+002	(5.78675391314894e+001dB,-3.91851951628954e+001°)
1.90998517204287e+002	(5.77479328417956e+001dB,-3.91234243095497e+001°)
1.95447444191162e+002	(5.76289516655420e+001dB,-3.90490437618811e+001°)
1.99999999999999e+002	(5.75106678658254e+001dB,-3.89622712971717e+001°)
2.04658598456150e+002	(5.73931521207180e+001dB,-3.88633446397884e+001°)
2.09425709610179e+002	(5.72764733749041e+001dB,-3.87525209695028e+001°)
2.14303861047521e+002	(5.71606986942327e+001dB,-3.86300763785236e+001°)
2.19295639228636e+002	(5.70458931236402e+001dB,-3.84963052770896e+001°)
2.24403690860392e+002	(5.69321195489341e+001dB,-3.83515197476879e+001°)
2.29630724299376e+002	(5.68194385629492e+001dB,-3.81960488482143e+001°)
2.34979510987905e+002	(5.67079083366174e+001dB,-3.80302378646950e+001°)
2.40452886923482e+002	(5.65975844955058e+001dB,-3.78544475145133e+001°)
2.46053754162476e+002	(5.64885200023925e+001dB,-3.76690531014494e+001°)
2.51785082358833e+002	(5.63807650464513e+001dB,-3.74744436242280e+001°)
2.57649910338626e+002	(5.62743669396182e+001dB,-3.72710208406689e+001°)
2.63651347711281e+002	(5.61693700206975e+001dB,-3.70591982899535e+001°)
2.69792576518330e+002	(5.60658155677482e+001dB,-3.68394002759329e+001°)
2.76076852920576e+002	(5.59637417192626e+001dB,-3.66120608148197e+001°)
2.82507508924550e+002	(5.58631834046136e+001dB,-3.63776225509948e+001°)
2.89087954149185e+002	(5.57641722841998e+001dB,-3.61365356450424e+001°)
2.95821677633641e+002	(5.56667366996671e+001dB,-3.58892566384620e+001°)
3.02712249687241e+002	(5.55709016345241e+001dB,-3.56362472998143e+001°)
3.09763323782495e+002	(5.54766886854014e+001dB,-3.53779734573156e+001°)
3.16978638492222e+002	(5.53841160441337e+001dB,-3.51149038230990e+001°)
3.24362019471785e+002	(5.52931984907674e+001dB,-3.48475088145096e+001°)
3.31917381487511e+002	(5.52039473975137e+001dB,-3.45762593778898e+001°)
3.39648730492348e+002	(5.51163707435914e+001dB,-3.43016258203290e+001°)
3.47560165749874e+002	(5.50304731408145e+001dB,-3.40240766548125e+001°)
3.55655882007783e+002	(5.49462558697053e+001dB,-3.37440774640921e+001°)
3.63940171721995e+002	(5.48637169258305e+001dB,-3.34620897884286e+001°)
3.72417427332572e+002	(5.47828510759860e+001dB,-3.31785700421203e+001°)
3.81092143592648e+002	(5.47036499237824e+001dB,-3.28939684634396e+001°)
3.89968919951608e+002	(5.46261019841248e+001dB,-3.26087281022487e+001°)
3.99052462993775e+002	(5.45501927660167e+001dB,-3.23232838491814e+001°)
4.08347588933904e+002	(5.44759048630755e+001dB,-3.20380615098371e+001°)
4.17859226170806e+002	(5.44032180511016e+001dB,-3.17534769269747e+001°)
4.27592417900445e+002	(5.43321093920150e+001dB,-3.14699351532047e+001°)
4.37552324789909e+002	(5.42625533434507e+001dB,-3.11878296761743e+001°)
4.47744227713666e+002	(5.41945218732891e+001dB,-3.09075416977317e+001°)
4.58173530553553e+002	(5.41279845784006e+001dB,-3.06294394680476e+001°)
4.68845763063983e+002	(5.40629088068822e+001dB,-3.03538776751709e+001°)
4.79766583803896e+002	(5.39992597830864e+001dB,-3.00811968900179e+001°)
4.90941783137004e+002	(5.39370007347594e+001dB,-2.98117230663342e+001°)
5.02377286301914e+002	(5.38760930216413e+001dB,-2.95457670947429e+001°)
5.14079156553771e+002	(5.38164962649149e+001dB,-2.92836244096002e+001°)
5.26053598379074e+002	(5.37581684769365e+001dB,-2.90255746470324e+001°)
5.38306960785381e+002	(5.37010661907268e+001dB,-2.87718813522178e+001°)
5.50845740667631e+002	(5.36451445887553e+001dB,-2.85227917337209e+001°)
5.63676586252888e+002	(5.35903576306061e+001dB,-2.82785364624761e+001°)
5.76806300625319e+002	(5.35366581791703e+001dB,-2.80393295128553e+001°)
5.90241845333275e+002	(5.34839981250678e+001dB,-2.78053680431472e+001°)
6.03990344080401e+002	(5.34323285090636e+001dB,-2.75768323127143e+001°)
6.18059086502716e+002	(5.33815996422963e+001dB,-2.73538856330815e+001°)
6.32455532033673e+002	(5.33317612241979e+001dB,-2.71366743502462e+001°)
6.47187313859254e+002	(5.32827624580356e+001dB,-2.69253278555795e+001°)
6.62262242965179e+002	(5.32345521640568e+001dB,-2.67199586228064e+001°)
6.77688312278402e+002	(5.31870788902678e+001dB,-2.65206622687151e+001°)
6.93473700905060e+002	(5.31402910209184e+001dB,-2.63275176354368e+001°)
7.09626778467148e+002	(5.30941368828025e+001dB,-2.61405868923617e+001°)
7.26156109540200e+002	(5.30485648495194e+001dB,-2.59599156560102e+001°)
7.43070458194342e+002	(5.30035234438667e+001dB,-2.57855331264486e+001°)
7.60378792641119e+002	(5.29589614385575e+001dB,-2.56174522391335e+001°)
7.78090289988558e+002	(5.29148279554709e+001dB,-2.54556698313733e+001°)
7.96214341106991e+002	(5.28710725636529e+001dB,-2.53001668229099e+001°)
8.14760555608222e+002	(5.28276453762893e+001dB,-2.51509084104452e+001°)
8.33738766940667e+002	(5.27844971468669e+001dB,-2.50078442762555e+001°)
8.53159037603181e+002	(5.27415793647304e+001dB,-2.48709088113528e+001°)
8.73031664480328e+002	(5.26988443502264e+001dB,-2.47400213539611e+001°)
8.93367184301922e+002	(5.26562453496020e+001dB,-2.46150864443653e+001°)
9.14176379229746e+002	(5.26137366297984e+001dB,-2.44959940974691e+001°)
9.35470282574392e+002	(5.25712735732441e+001dB,-2.43826200946504e+001°)
9.57260184645272e+002	(5.25288127727131e+001dB,-2.42748262967245e+001°)
9.79557638736888e+002	(5.24863121262685e+001dB,-2.41724609800247e+001°)
1.00237446725454e+003	(5.24437309322619e+001dB,-2.40753591977644e+001°)
1.02572276798272e+003	(5.24010299843040e+001dB,-2.39833431689634e+001°)
1.04961492049954e+003	(5.23581716660673e+001dB,-2.38962226972947e+001°)
1.07406359274050e+003	(5.23151200457175e+001dB,-2.38137956222373e+001°)
1.09908174771524e+003	(5.22718409697114e+001dB,-2.37358483048908e+001°)
1.12468265038069e+003	(5.22283021556342e+001dB,-2.36621561507363e+001°)
1.15087987467431e+003	(5.21844732836836e+001dB,-2.35924841714873e+001°)
1.17768731071117e+003	(5.21403260863488e+001dB,-2.35265875879882e+001°)
1.20511917214871e+003	(5.20958344357672e+001dB,-2.34642124758665e+001°)
1.23319000372296e+003	(5.20509744281872e+001dB,-2.34050964553344e+001°)
1.26191468896038e+003	(5.20057244649070e+001dB,-2.33489694261729e+001°)
1.29130845806930e+003	(5.19600653290149e+001dB,-2.32955543485065e+001°)
1.32138689601518e+003	(5.19139802572109e+001dB,-2.32445680695051e+001°)
1.35216595078396e+003	(5.18674550059566e+001dB,-2.31957221956218e+001°)
1.38366194183787e+003	(5.18204779111736e+001dB,-2.31487240094128e+001°)
1.41589156876827e+003	(5.17730399406963e+001dB,-2.31032774293766e+001°)
1.44887192014997e+003	(5.17251347386766e+001dB,-2.30590840106169e+001°)
1.48262048260183e+003	(5.16767586611495e+001dB,-2.30158439834780e+001°)
1.51715515005836e+003	(5.16279108019845e+001dB,-2.29732573266315e+001°)
1.55249423325738e+003	(5.15785930084794e+001dB,-2.29310248704255e+001°)
1.58865646944855e+003	(5.15288098859018e+001dB,-2.28888494256456e+001°)
1.62566103232819e+003	(5.14785687903385e+001dB,-2.28464369322015e+001°)
1.66352754220533e+003	(5.14278798092882e+001dB,-2.28034976216432e+001°)
1.70227607640474e+003	(5.13767557295150e+001dB,-2.27597471868547e+001°)
1.74192717991215e+003	(5.13252119917782e+001dB,-2.27149079517690e+001°)
1.78250187626748e+003	(5.12732666321626e+001dB,-2.26687100335133e+001°)
1.82402167871181e+003	(5.12209402098491e+001dB,-2.26208924890395e+001°)
1.86650860159397e+003	(5.11682557212929e+001dB,-2.25712044380300e+001°)
1.90998517204286e+003	(5.11152385009115e+001dB,-2.25194061537011e+001°)
1.95447444191161e+003	(5.10619161085170e+001dB,-2.24652701130615e+001°)
1.99999999999999e+003	(5.10083182038757e+001dB,-2.24085819982339e+001°)
2.04658598456150e+003	(5.09544764089114e+001dB,-2.23491416406045e+001°)
2.09425709610179e+003	(5.09004241582143e+001dB,-2.22867638998439e+001°)
2.14303861047520e+003	(5.08461965386501e+001dB,-2.22212794702279e+001°)
2.19295639228636e+003	(5.07918301189933e+001dB,-2.21525356071922e+001°)
2.24403690860391e+003	(5.07373627706314e+001dB,-2.20803967676558e+001°)
2.29630724299375e+003	(5.06828334804940e+001dB,-2.20047451583551e+001°)
2.34979510987905e+003	(5.06282821574605e+001dB,-2.19254811872252e+001°)
2.40452886923481e+003	(5.05737494335820e+001dB,-2.18425238137332e+001°)
2.46053754162475e+003	(5.05192764615196e+001dB,-2.17558107950095e+001°)
2.51785082358832e+003	(5.04649047096523e+001dB,-2.16652988256074e+001°)
2.57649910338625e+003	(5.04106757563377e+001dB,-2.15709635697497e+001°)
2.63651347711280e+003	(5.03566310848223e+001dB,-2.14727995859586e+001°)
2.69792576518329e+003	(5.03028118802926e+001dB,-2.13708201450209e+001°)
2.76076852920575e+003	(5.02492588305313e+001dB,-2.12650569432657e+001°)
2.82507508924549e+003	(5.01960119315999e+001dB,-2.11555597141457e+001°)
2.89087954149184e+003	(5.01431102999096e+001dB,-2.10423957420644e+001°)
2.95821677633640e+003	(5.00905919919606e+001dB,-2.09256492833018e+001°)
3.02712249687240e+003	(5.00384938329412e+001dB,-2.08054208997091e+001°)
3.09763323782494e+003	(4.99868512552673e+001dB,-2.06818267115943e+001°)
3.16978638492221e+003	(4.99356981480289e+001dB,-2.05549975768628e+001°)
3.24362019471784e+003	(4.98850667181792e+001dB,-2.04250782040267e+001°)
3.31917381487510e+003	(4.98349873641699e+001dB,-2.02922262071287e+001°)
3.39648730492347e+003	(4.97854885625924e+001dB,-2.01566111109542e+001°)
3.47560165749873e+003	(4.97365967682478e+001dB,-2.00184133151084e+001°)
3.55655882007782e+003	(4.96883363279196e+001dB,-1.98778230256351e+001°)
3.63940171721994e+003	(4.96407294079847e+001dB,-1.97350391628325e+001°)
3.72417427332571e+003	(4.95937959358629e+001dB,-1.95902682537980e+001°)
3.81092143592647e+003	(4.95475535551673e+001dB,-1.94437233180083e+001°)
3.89968919951606e+003	(4.95020175943023e+001dB,-1.92956227539215e+001°)
3.99052462993773e+003	(4.94572010481338e+001dB,-1.91461892341850e+001°)
4.08347588933903e+003	(4.94131145722576e+001dB,-1.89956486165573e+001°)
4.17859226170805e+003	(4.93697664892956e+001dB,-1.88442288771073e+001°)
4.27592417900444e+003	(4.93271628065708e+001dB,-1.86921590716699e+001°)
4.37552324789908e+003	(4.92853072444451e+001dB,-1.85396683309012e+001°)
4.47744227713665e+003	(4.92442012745473e+001dB,-1.83869848936185e+001°)
4.58173530553552e+003	(4.92038441670807e+001dB,-1.82343351824396e+001°)
4.68845763063981e+003	(4.91642330463681e+001dB,-1.80819429250526e+001°)
4.79766583803895e+003	(4.91253629537793e+001dB,-1.79300283237752e+001°)
4.90941783137003e+003	(4.90872269171797e+001dB,-1.77788072754044e+001°)
5.02377286301913e+003	(4.90498160260489e+001dB,-1.76284906427239e+001°)
5.14079156553769e+003	(4.90131195114312e+001dB,-1.74792835784303e+001°)
5.26053598379073e+003	(4.89771248299142e+001dB,-1.73313849016793e+001°)
5.38306960785379e+003	(4.89418177508565e+001dB,-1.71849865269277e+001°)
5.50845740667629e+003	(4.89071824461386e+001dB,-1.70402729442771e+001°)
5.63676586252887e+003	(4.88732015817495e+001dB,-1.68974207501019e+001°)
5.76806300625317e+003	(4.88398564105816e+001dB,-1.67565982263747e+001°)
5.90241845333273e+003	(4.88071268658574e+001dB,-1.66179649667897e+001°)
6.03990344080399e+003	(4.87749916546741e+001dB,-1.64816715475224e+001°)
6.18059086502713e+003	(4.87434283512117e+001dB,-1.63478592402603e+001°)
6.32455532033671e+003	(4.87124134892099e+001dB,-1.62166597649838e+001°)
6.47187313859252e+003	(4.86819226533826e+001dB,-1.60881950798745e+001°)
6.62262242965177e+003	(4.86519305694962e+001dB,-1.59625772056740e+001°)
6.77688312278400e+003	(4.86224111928972e+001dB,-1.58399080818062e+001°)
6.93473700905058e+003	(4.85933377953298e+001dB,-1.57202794516085e+001°)
7.09626778467146e+003	(4.85646830499365e+001dB,-1.56037727740910e+001°)
7.26156109540197e+003	(4.85364191143843e+001dB,-1.54904591597469e+001°)
7.43070458194339e+003	(4.85085177121042e+001dB,-1.53803993280772e+001°)
7.60378792641117e+003	(4.84809502116722e+001dB,-1.52736435846582e+001°)
7.78090289988555e+003	(4.84536877043979e+001dB,-1.51702318157721e+001°)
7.96214341106988e+003	(4.84267010802175e+001dB,-1.50701934988299e+001°)
8.14760555608219e+003	(4.83999611020161e+001dB,-1.49735477270451e+001°)
8.33738766940664e+003	(4.83734384785266e+001dB,-1.48803032470589e+001°)
8.53159037603179e+003	(4.83471039359686e+001dB,-1.47904585084676e+001°)
8.73031664480325e+003	(4.83209282886058e+001dB,-1.47040017244659e+001°)
8.93367184301919e+003	(4.82948825084034e+001dB,-1.46209109430770e+001°)
9.14176379229743e+003	(4.82689377939746e+001dB,-1.45411541287098e+001°)
9.35470282574389e+003	(4.82430656389980e+001dB,-1.44646892540408e+001°)
9.57260184645269e+003	(4.82172379002830e+001dB,-1.43914644024767e+001°)
9.79557638736884e+003	(4.81914268656471e+001dB,-1.43214178816998e+001°)
1.00237446725454e+004	(4.81656053217521e+001dB,-1.42544783490356e+001°)
1.02572276798272e+004	(4.81397466220241e+001dB,-1.41905649496043e+001°)
1.04961492049954e+004	(4.81138247547577e+001dB,-1.41295874684208e+001°)
1.07406359274050e+004	(4.80878144114731e+001dB,-1.40714464977946e+001°)
1.09908174771524e+004	(4.80616910555620e+001dB,-1.40160336215393e+001°)
1.12468265038069e+004	(4.80354309912205e+001dB,-1.39632316176383e+001°)
1.15087987467430e+004	(4.80090114326252e+001dB,-1.39129146811155e+001°)
