Freq.	V(input)/I(R3)
1.00000000000000e+004	(7.58324090996792e+001dB,-6.50255893410999e-002°)
1.02329299228075e+004	(7.58323445584799e+001dB,-6.64788699124160e-002°)
1.04712854805090e+004	(7.58322771020767e+001dB,-6.79617363393953e-002°)
1.07151930523761e+004	(7.58322066048894e+001dB,-6.94745873222107e-002°)
1.09647819614318e+004	(7.58321329365010e+001dB,-7.10178117969211e-002°)
1.12201845430196e+004	(7.58320559615273e+001dB,-7.25917875275157e-002°)
1.14815362149688e+004	(7.58319755394858e+001dB,-7.41968796404635e-002°)
1.17489755493953e+004	(7.58318915246694e+001dB,-7.58334390253220e-002°)
1.20226443461741e+004	(7.58318037660234e+001dB,-7.75018006497978e-002°)
1.23026877081238e+004	(7.58317121070250e+001dB,-7.92022817780788e-002°)
1.25892541179417e+004	(7.58316163855696e+001dB,-8.09351800737506e-002°)
1.28824955169313e+004	(7.58315164338650e+001dB,-8.27007715566387e-002°)
1.31825673855641e+004	(7.58314120783283e+001dB,-8.44993085147284e-002°)
1.34896288259165e+004	(7.58313031394981e+001dB,-8.63310171940846e-002°)
1.38038426460288e+004	(7.58311894319501e+001dB,-8.81960954801322e-002°)
1.41253754462275e+004	(7.58310707642295e+001dB,-9.00947103494923e-002°)
1.44543977074593e+004	(7.58309469387938e+001dB,-9.20269952507618e-002°)
1.47910838816821e+004	(7.58308177519710e+001dB,-9.39930473334871e-002°)
1.51356124843621e+004	(7.58306829939346e+001dB,-9.59929245454417e-002°)
1.54881661891248e+004	(7.58305424486969e+001dB,-9.80266425965865e-002°)
1.58489319246111e+004	(7.58303958941238e+001dB,-1.00094171779150e-001°)
1.62181009735893e+004	(7.58302431019683e+001dB,-1.02195433692404e-001°)
1.65958690743756e+004	(7.58300838379380e+001dB,-1.04330297738445e-001°)
1.69824365246174e+004	(7.58299178617790e+001dB,-1.06498577611410e-001°)
1.73780082874937e+004	(7.58297449273963e+001dB,-1.08700027583751e-001°)
1.77827941003892e+004	(7.58295647830079e+001dB,-1.10934338657684e-001°)
1.81970085860998e+004	(7.58293771713293e+001dB,-1.13201134656817e-001°)
1.86208713666287e+004	(7.58291818297975e+001dB,-1.15499968200289e-001°)
1.90546071796325e+004	(7.58289784908429e+001dB,-1.17830316493504e-001°)
1.94984459975804e+004	(7.58287668821934e+001dB,-1.20191577171975e-001°)
1.99526231496888e+004	(7.58285467272349e+001dB,-1.22583063964769e-001°)
2.04173794466953e+004	(7.58283177454182e+001dB,-1.25004002347416e-001°)
2.08929613085404e+004	(7.58280796527201e+001dB,-1.27453525142744e-001°)
2.13796208950223e+004	(7.58278321621583e+001dB,-1.29930668124849e-001°)
2.18776162394955e+004	(7.58275749843700e+001dB,-1.32434365593733e-001°)
2.23872113856834e+004	(7.58273078282478e+001dB,-1.34963446017514e-001°)
2.29086765276777e+004	(7.58270304016417e+001dB,-1.37516627722731e-001°)
2.34422881531992e+004	(7.58267424121318e+001dB,-1.40092514663325e-001°)
2.39883291901949e+004	(7.58264435678596e+001dB,-1.42689592376679e-001°)
2.45470891568503e+004	(7.58261335784498e+001dB,-1.45306223996693e-001°)
2.51188643150958e+004	(7.58258121559784e+001dB,-1.47940646638046e-001°)
2.57039578276886e+004	(7.58254790160415e+001dB,-1.50590967860434e-001°)
2.63026799189538e+004	(7.58251338788772e+001dB,-1.53255162579177e-001°)
2.69153480392691e+004	(7.58247764705806e+001dB,-1.55931070206296e-001°)
2.75422870333816e+004	(7.58244065243731e+001dB,-1.58616392317732e-001°)
2.81838293126445e+004	(7.58240237819612e+001dB,-1.61308690686637e-001°)
2.88403150312660e+004	(7.58236279949525e+001dB,-1.64005385882745e-001°)
2.95120922666638e+004	(7.58232189263508e+001dB,-1.66703756428652e-001°)
3.01995172040201e+004	(7.58227963521079e+001dB,-1.69400938588125e-001°)
3.09029543251359e+004	(7.58223600627279e+001dB,-1.72093926897990e-001°)
3.16227766016837e+004	(7.58219098649368e+001dB,-1.74779575393261e-001°)
3.23593656929628e+004	(7.58214455833891e+001dB,-1.77454599681120e-001°)
3.31131121482591e+004	(7.58209670624089e+001dB,-1.80115579909196e-001°)
3.38844156139202e+004	(7.58204741677587e+001dB,-1.82758964631631e-001°)
3.46736850452531e+004	(7.58199667884307e+001dB,-1.85381075666770e-001°)
3.54813389233575e+004	(7.58194448384335e+001dB,-1.87978113973817e-001°)
3.63078054770101e+004	(7.58189082585729e+001dB,-1.90546166618515e-001°)
3.71535229097172e+004	(7.58183570182061e+001dB,-1.93081214810367e-001°)
3.80189396320560e+004	(7.58177911169478e+001dB,-1.95579143124921e-001°)
3.89045144994280e+004	(7.58172105863544e+001dB,-1.98035749724986e-001°)
3.98107170553496e+004	(7.58166154914742e+001dB,-2.00446757934963e-001°)
4.07380277804112e+004	(7.58160059323759e+001dB,-2.02807828723405e-001°)
4.16869383470335e+004	(7.58153820454972e+001dB,-2.05114574508111e-001°)
4.26579518801592e+004	(7.58147440049178e+001dB,-2.07362573890765e-001°)
4.36515832240165e+004	(7.58140920234490e+001dB,-2.09547387512546e-001°)
4.46683592150962e+004	(7.58134263535807e+001dB,-2.11664574808554e-001°)
4.57088189614874e+004	(7.58127472882128e+001dB,-2.13709711743526e-001°)
4.67735141287197e+004	(7.58120551612156e+001dB,-2.15678409233120e-001°)
4.78630092322637e+004	(7.58113503477412e+001dB,-2.17566332337124e-001°)
4.89778819368445e+004	(7.58106332643120e+001dB,-2.19369219964534e-001°)
5.01187233627271e+004	(7.58099043686651e+001dB,-2.21082905001304e-001°)
5.12861383991363e+004	(7.58091641593234e+001dB,-2.22703334715581e-001°)
5.24807460249771e+004	(7.58084131749118e+001dB,-2.24226591247137e-001°)
5.37031796370251e+004	(7.58076519931761e+001dB,-2.25648912022447e-001°)
5.49540873857623e+004	(7.58068812297550e+001dB,-2.26966709930178e-001°)
5.62341325190347e+004	(7.58061015366411e+001dB,-2.28176593025239e-001°)
5.75439937337155e+004	(7.58053136003875e+001dB,-2.29275383614873e-001°)
5.88843655355587e+004	(7.58045181400289e+001dB,-2.30260136478795e-001°)
6.02559586074356e+004	(7.58037159047671e+001dB,-2.31128156133708e-001°)
6.16595001861480e+004	(7.58029076713744e+001dB,-2.31877012808236e-001°)
6.30957344480191e+004	(7.58020942414065e+001dB,-2.32504557125297e-001°)
6.45654229034654e+004	(7.58012764381797e+001dB,-2.33008933172274e-001°)
6.60693448007594e+004	(7.58004551035641e+001dB,-2.33388589941906e-001°)
6.76082975391980e+004	(7.57996310946271e+001dB,-2.33642290882382e-001°)
6.91830970918934e+004	(7.57988052801448e+001dB,-2.33769121573065e-001°)
7.07945784384136e+004	(7.57979785369927e+001dB,-2.33768495367339e-001°)
7.24435960074988e+004	(7.57971517464860e+001dB,-2.33640156888392e-001°)
7.41310241300915e+004	(7.57963257906650e+001dB,-2.33384183458906e-001°)
7.58577575029181e+004	(7.57955015485974e+001dB,-2.33000984360764e-001°)
7.76247116628689e+004	(7.57946798926827e+001dB,-2.32491297922404e-001°)
7.94328234724279e+004	(7.57938616850379e+001dB,-2.31856186548823e-001°)
8.12830516164096e+004	(7.57930477739699e+001dB,-2.31097029651427e-001°)
8.31763771102668e+004	(7.57922389905719e+001dB,-2.30215514693964e-001°)
8.51138038202373e+004	(7.57914361454721e+001dB,-2.29213626250409e-001°)
8.70963589956077e+004	(7.57906400257656e+001dB,-2.28093633478790e-001°)
8.91250938133742e+004	(7.57898513921552e+001dB,-2.26858075955280e-001°)
9.12010839355906e+004	(7.57890709762874e+001dB,-2.25509747970958e-001°)
9.33254300796988e+004	(7.57882994783728e+001dB,-2.24051681773640e-001°)
9.54992586021432e+004	(7.57875375650369e+001dB,-2.22487129587874e-001°)
9.77237220955807e+004	(7.57867858674343e+001dB,-2.20819544761561e-001°)
9.99999999999996e+004	(7.57860449796562e+001dB,-2.19052562305688e-001°)
1.02329299228075e+005	(7.57853154574075e+001dB,-2.17189978844968e-001°)
1.04712854805090e+005	(7.57845978169577e+001dB,-2.15235732316694e-001°)
1.07151930523760e+005	(7.57838925343733e+001dB,-2.13193881434747e-001°)
1.09647819614318e+005	(7.57832000450400e+001dB,-2.11068585409744e-001°)
1.12201845430196e+005	(7.57825207434157e+001dB,-2.08864083658205e-001°)
1.14815362149688e+005	(7.57818549830573e+001dB,-2.06584676041019e-001°)
1.17489755493952e+005	(7.57812030768908e+001dB,-2.04234703553909e-001°)
1.20226443461741e+005	(7.57805652977015e+001dB,-2.01818529767687e-001°)
1.23026877081238e+005	(7.57799418788168e+001dB,-1.99340522796541e-001°)
1.25892541179416e+005	(7.57793330150218e+001dB,-1.96805038507823e-001°)
1.28824955169313e+005	(7.57787388636072e+001dB,-1.94216404309931e-001°)
1.31825673855640e+005	(7.57781595455954e+001dB,-1.91578904220470e-001°)
1.34896288259165e+005	(7.57775951470987e+001dB,-1.88896764833385e-001°)
1.38038426460288e+005	(7.57770457207924e+001dB,-1.86174142581044e-001°)
1.41253754462275e+005	(7.57765112874861e+001dB,-1.83415111987999e-001°)
1.44543977074592e+005	(7.57759918377756e+001dB,-1.80623655087049e-001°)
1.47910838816820e+005	(7.57754873337536e+001dB,-1.77803652096909e-001°)
1.51356124843620e+005	(7.57749977107737e+001dB,-1.74958873103901e-001°)
1.54881661891247e+005	(7.57745228792347e+001dB,-1.72092970991218e-001°)
1.58489319246111e+005	(7.57740627263832e+001dB,-1.69209475342603e-001°)
1.62181009735892e+005	(7.57736171181149e+001dB,-1.66311787448834e-001°)
1.65958690743755e+005	(7.57731859007617e+001dB,-1.63403176319453e-001°)
1.69824365246174e+005	(7.57727689028657e+001dB,-1.60486775646413e-001°)
1.73780082874937e+005	(7.57723659368995e+001dB,-1.57565581724554e-001°)
1.77827941003891e+005	(7.57719768009669e+001dB,-1.54642452063837e-001°)
1.81970085860998e+005	(7.57716012804336e+001dB,-1.51720104995046e-001°)
1.86208713666286e+005	(7.57712391495109e+001dB,-1.48801119859676e-001°)
1.90546071796324e+005	(7.57708901727782e+001dB,-1.45887937941383e-001°)
1.94984459975804e+005	(7.57705541066271e+001dB,-1.42982863952337e-001°)
1.99526231496887e+005	(7.57702307006457e+001dB,-1.40088068114601e-001°)
2.04173794466952e+005	(7.57699196989303e+001dB,-1.37205588769185e-001°)
2.08929613085403e+005	(7.57696208413115e+001dB,-1.34337335283712e-001°)
2.13796208950222e+005	(7.57693338645120e+001dB,-1.31485091505679e-001°)
2.18776162394954e+005	(7.57690585032293e+001dB,-1.28650519489703e-001°)
2.23872113856833e+005	(7.57687944911334e+001dB,-1.25835163429737e-001°)
2.29086765276776e+005	(7.57685415617993e+001dB,-1.23040453966929e-001°)
2.34422881531991e+005	(7.57682994495584e+001dB,-1.20267712601277e-001°)
2.39883291901948e+005	(7.57680678902763e+001dB,-1.17518156301023e-001°)
2.45470891568502e+005	(7.57678466220646e+001dB,-1.14792902196492e-001°)
2.51188643150957e+005	(7.57676353859184e+001dB,-1.12092972418496e-001°)
2.57039578276885e+005	(7.57674339262925e+001dB,-1.09419298935556e-001°)
2.63026799189537e+005	(7.57672419916045e+001dB,-1.06772728451734e-001°)
2.69153480392690e+005	(7.57670593346849e+001dB,-1.04154027316769e-001°)
2.75422870333815e+005	(7.57668857131674e+001dB,-1.01563886355532e-001°)
2.81838293126444e+005	(7.57667208898135e+001dB,-9.90029257448821e-002°)
2.88403150312659e+005	(7.57665646327943e+001dB,-9.64716997787360e-002°)
2.95120922666637e+005	(7.57664167159158e+001dB,-9.39707015488463e-002°)
3.01995172040200e+005	(7.57662769187926e+001dB,-9.15003675741551e-002°)
3.09029543251358e+005	(7.57661450269859e+001dB,-8.90610822837714e-002°)
3.16227766016836e+005	(7.57660208320826e+001dB,-8.66531824534149e-002°)
3.23593656929627e+005	(7.57659041317486e+001dB,-8.42769614075120e-002°)
3.31131121482589e+005	(7.57657947297330e+001dB,-8.19326732138076e-002°)
3.38844156139201e+005	(7.57656924358391e+001dB,-7.96205366395031e-002°)
3.46736850452530e+005	(7.57655970658592e+001dB,-7.73407390156409e-002°)
3.54813389233574e+005	(7.57655084414827e+001dB,-7.50934398924926e-002°)
3.63078054770099e+005	(7.57654263901643e+001dB,-7.28787746020479e-002°)
3.71535229097171e+005	(7.57653507449725e+001dB,-7.06968575773452e-002°)
3.80189396320559e+005	(7.57652813444042e+001dB,-6.85477855738094e-002°)
3.89045144994279e+005	(7.57652180321824e+001dB,-6.64316406408911e-002°)
3.98107170553495e+005	(7.57651606570227e+001dB,-6.43484929717981e-002°)
4.07380277804111e+005	(7.57651090723820e+001dB,-6.22984035200167e-002°)
4.16869383470333e+005	(7.57650631361904e+001dB,-6.02814264565082e-002°)
4.26579518801590e+005	(7.57650227105615e+001dB,-5.82976114081432e-002°)
4.36515832240164e+005	(7.57649876614854e+001dB,-5.63470055133165e-002°)
4.46683592150961e+005	(7.57649578585131e+001dB,-5.44296552574816e-002°)
4.57088189614873e+005	(7.57649331744229e+001dB,-5.25456081052082e-002°)
4.67735141287196e+005	(7.57649134848792e+001dB,-5.06949139239044e-002°)
4.78630092322636e+005	(7.57648986680801e+001dB,-4.88776261903291e-002°)
4.89778819368444e+005	(7.57648886044048e+001dB,-4.70938029616367e-002°)
5.01187233627270e+005	(7.57648831760468e+001dB,-4.53435076484980e-002°)
5.12861383991362e+005	(7.57648822666531e+001dB,-4.36268095428332e-002°)
5.24807460249770e+005	(7.57648857609604e+001dB,-4.19437841322427e-002°)
5.37031796370250e+005	(7.57648935444341e+001dB,-4.02945131733352e-002°)
5.49540873857621e+005	(7.57649055029121e+001dB,-3.86790845578691e-002°)
5.62341325190346e+005	(7.57649215222568e+001dB,-3.70975919249449e-002°)
5.75439937337154e+005	(7.57649414880182e+001dB,-3.55501340781608e-002°)
5.88843655355586e+005	(7.57649652851098e+001dB,-3.40368141673241e-002°)
6.02559586074354e+005	(7.57649927974984e+001dB,-3.25577386549267e-002°)
6.16595001861479e+005	(7.57650239079168e+001dB,-3.11130160878558e-002°)
6.30957344480189e+005	(7.57650584975943e+001dB,-2.97027556571736e-002°)
6.45654229034652e+005	(7.57650964460139e+001dB,-2.83270655788071e-002°)
6.60693448007592e+005	(7.57651376306970e+001dB,-2.69860513053858e-002°)
6.76082975391978e+005	(7.57651819270152e+001dB,-2.56798135644734e-002°)
6.91830970918932e+005	(7.57652292080378e+001dB,-2.44084462684559e-002°)
7.07945784384134e+005	(7.57652793444111e+001dB,-2.31720342946169e-002°)
7.24435960074986e+005	(7.57653322042760e+001dB,-2.19706511623177e-002°)
7.41310241300913e+005	(7.57653876532236e+001dB,-2.08043566363491e-002°)
7.58577575029179e+005	(7.57654455542902e+001dB,-1.96731942653820e-002°)
7.76247116628687e+005	(7.57655057679937e+001dB,-1.85771888994581e-002°)
7.94328234724276e+005	(7.57655681524122e+001dB,-1.75163442030238e-002°)
8.12830516164094e+005	(7.57656325633033e+001dB,-1.64906401881903e-002°)
8.31763771102666e+005	(7.57656988542672e+001dB,-1.55000308118167e-002°)
8.51138038202371e+005	(7.57657668769490e+001dB,-1.45444416430128e-002°)
8.70963589956075e+005	(7.57658364812824e+001dB,-1.36237676522289e-002°)
8.91250938133740e+005	(7.57659075157724e+001dB,-1.27378711396254e-002°)
9.12010839355904e+005	(7.57659798278135e+001dB,-1.18865798259308e-002°)
9.33254300796985e+005	(7.57660532640416e+001dB,-1.10696851363057e-002°)
9.54992586021430e+005	(7.57661276707181e+001dB,-1.02869407087412e-002°)
9.77237220955804e+005	(7.57662028941405e+001dB,-9.53806113704461e-003°)
1.00000000000000e+006	(7.57662787810765e+001dB,-8.82272097164731e-003°)
