Freq.	V(vo)
1.00000000000000e+001	4.14163452710222e-001,-9.65126369198796e-004
1.00230523807790e+001	4.14163322343766e-001,-9.67351007700073e-004
1.00461579027840e+001	4.14163191375544e-001,-9.69580773083950e-004
1.00693166885180e+001	4.14163059802778e-001,-9.71815677159114e-004
1.00925288607668e+001	4.14162927622676e-001,-9.74055731761438e-004
1.01157945425990e+001	4.14162794832436e-001,-9.76300948754005e-004
1.01391138573668e+001	4.14162661429241e-001,-9.78551340027157e-004
1.01624869287070e+001	4.14162527410261e-001,-9.80806917498598e-004
1.01859138805412e+001	4.14162392772654e-001,-9.83067693113421e-004
1.02093948370768e+001	4.14162257513565e-001,-9.85333678844193e-004
1.02329299228075e+001	4.14162121630124e-001,-9.87604886690999e-004
1.02565192625141e+001	4.14161985119448e-001,-9.89881328681520e-004
1.02801629812647e+001	4.14161847978644e-001,-9.92163016871085e-004
1.03038612044162e+001	4.14161710204802e-001,-9.94449963342746e-004
1.03276140576140e+001	4.14161571795000e-001,-9.96742180207331e-004
1.03514216667934e+001	4.14161432746302e-001,-9.99039679603522e-004
1.03752841581801e+001	4.14161293055759e-001,-1.00134247369790e-003
1.03992016582906e+001	4.14161152720408e-001,-1.00365057468501e-003
1.04231742939330e+001	4.14161011737273e-001,-1.00596399478744e-003
1.04472021922080e+001	4.14160870103363e-001,-1.00828274625588e-003
1.04712854805090e+001	4.14160727815674e-001,-1.01060684136918e-003
1.04954242865232e+001	4.14160584871189e-001,-1.01293629243441e-003
1.05196187382322e+001	4.14160441266874e-001,-1.01527111178696e-003
1.05438689639126e+001	4.14160296999686e-001,-1.01761131179054e-003
1.05681750921366e+001	4.14160152066563e-001,-1.01995690483731e-003
1.05925372517729e+001	4.14160006464431e-001,-1.02230790334790e-003
1.06169555719872e+001	4.14159860190203e-001,-1.02466431977151e-003
1.06414301822431e+001	4.14159713240776e-001,-1.02702616658593e-003
1.06659612123026e+001	4.14159565613032e-001,-1.02939345629767e-003
1.06905487922266e+001	4.14159417303840e-001,-1.03176620144194e-003
1.07151930523761e+001	4.14159268310057e-001,-1.03414441458281e-003
1.07398941234124e+001	4.14159118628519e-001,-1.03652810831321e-003
1.07646521362983e+001	4.14158968256054e-001,-1.03891729525500e-003
1.07894672222983e+001	4.14158817189471e-001,-1.04131198805908e-003
1.08143395129794e+001	4.14158665425567e-001,-1.04371219940544e-003
1.08392691402120e+001	4.14158512961121e-001,-1.04611794200315e-003
1.08642562361706e+001	4.14158359792902e-001,-1.04852922859054e-003
1.08893009333343e+001	4.14158205917659e-001,-1.05094607193524e-003
1.09144033644875e+001	4.14158051332129e-001,-1.05336848483418e-003
1.09395636627209e+001	4.14157896033034e-001,-1.05579648011370e-003
1.09647819614318e+001	4.14157740017079e-001,-1.05823007062966e-003
1.09900583943252e+001	4.14157583280955e-001,-1.06066926926743e-003
1.10153930954141e+001	4.14157425821337e-001,-1.06311408894201e-003
1.10407861990207e+001	4.14157267634886e-001,-1.06556454259809e-003
1.10662378397766e+001	4.14157108718247e-001,-1.06802064321007e-003
1.10917481526240e+001	4.14156949068049e-001,-1.07048240378223e-003
1.11173172728159e+001	4.14156788680906e-001,-1.07294983734867e-003
1.11429453359173e+001	4.14156627553415e-001,-1.07542295697350e-003
1.11686324778056e+001	4.14156465682159e-001,-1.07790177575081e-003
1.11943788346715e+001	4.14156303063706e-001,-1.08038630680480e-003
1.12201845430196e+001	4.14156139694605e-001,-1.08287656328983e-003
1.12460497396692e+001	4.14155975571391e-001,-1.08537255839048e-003
1.12719745617551e+001	4.14155810690584e-001,-1.08787430532164e-003
1.12979591467279e+001	4.14155645048685e-001,-1.09038181732855e-003
1.13240036323555e+001	4.14155478642183e-001,-1.09289510768691e-003
1.13501081567231e+001	4.14155311467546e-001,-1.09541418970288e-003
1.13762728582343e+001	4.14155143521230e-001,-1.09793907671325e-003
1.14024978756117e+001	4.14154974799671e-001,-1.10046978208542e-003
1.14287833478977e+001	4.14154805299292e-001,-1.10300631921752e-003
1.14551294144553e+001	4.14154635016497e-001,-1.10554870153845e-003
1.14815362149688e+001	4.14154463947674e-001,-1.10809694250798e-003
1.15080038894443e+001	4.14154292089195e-001,-1.11065105561678e-003
1.15345325782109e+001	4.14154119437415e-001,-1.11321105438657e-003
1.15611224219210e+001	4.14153945988670e-001,-1.11577695237007e-003
1.15877735615512e+001	4.14153771739283e-001,-1.11834876315119e-003
1.16144861384034e+001	4.14153596685558e-001,-1.12092650034501e-003
1.16412602941049e+001	4.14153420823781e-001,-1.12351017759793e-003
1.16680961706096e+001	4.14153244150223e-001,-1.12609980858766e-003
1.16949939101987e+001	4.14153066661135e-001,-1.12869540702335e-003
1.17219536554813e+001	4.14152888352754e-001,-1.13129698664566e-003
1.17489755493953e+001	4.14152709221296e-001,-1.13390456122680e-003
1.17760597352080e+001	4.14152529262963e-001,-1.13651814457062e-003
1.18032063565173e+001	4.14152348473938e-001,-1.13913775051269e-003
1.18304155572516e+001	4.14152166850385e-001,-1.14176339292033e-003
1.18576874816716e+001	4.14151984388454e-001,-1.14439508569276e-003
1.18850222743701e+001	4.14151801084272e-001,-1.14703284276110e-003
1.19124200802737e+001	4.14151616933953e-001,-1.14967667808848e-003
1.19398810446427e+001	4.14151431933589e-001,-1.15232660567011e-003
1.19674053130724e+001	4.14151246079257e-001,-1.15498263953332e-003
1.19949930314937e+001	4.14151059367017e-001,-1.15764479373771e-003
1.20226443461741e+001	4.14150871792905e-001,-1.16031308237512e-003
1.20503594037179e+001	4.14150683352944e-001,-1.16298751956979e-003
1.20781383510678e+001	4.14150494043137e-001,-1.16566811947839e-003
1.21059813355048e+001	4.14150303859469e-001,-1.16835489629010e-003
1.21338885046497e+001	4.14150112797906e-001,-1.17104786422672e-003
1.21618600064636e+001	4.14149920854394e-001,-1.17374703754266e-003
1.21898959892486e+001	4.14149728024863e-001,-1.17645243052511e-003
1.22179966016487e+001	4.14149534305223e-001,-1.17916405749407e-003
1.22461619926504e+001	4.14149339691364e-001,-1.18188193280241e-003
1.22743923115840e+001	4.14149144179158e-001,-1.18460607083597e-003
1.23026877081238e+001	4.14148947764459e-001,-1.18733648601363e-003
1.23310483322890e+001	4.14148750443100e-001,-1.19007319278737e-003
1.23594743344450e+001	4.14148552210896e-001,-1.19281620564238e-003
1.23879658653036e+001	4.14148353063642e-001,-1.19556553909712e-003
1.24165230759240e+001	4.14148152997114e-001,-1.19832120770334e-003
1.24451461177138e+001	4.14147952007068e-001,-1.20108322604625e-003
1.24738351424294e+001	4.14147750089241e-001,-1.20385160874455e-003
1.25025903021771e+001	4.14147547239350e-001,-1.20662637045048e-003
1.25314117494141e+001	4.14147343453093e-001,-1.20940752584996e-003
1.25602996369487e+001	4.14147138726147e-001,-1.21219508966260e-003
1.25892541179416e+001	4.14146933054168e-001,-1.21498907664184e-003
1.26182753459066e+001	4.14146726432796e-001,-1.21778950157496e-003
1.26473634747114e+001	4.14146518857646e-001,-1.22059637928320e-003
1.26765186585784e+001	4.14146310324316e-001,-1.22340972462186e-003
1.27057410520853e+001	4.14146100828384e-001,-1.22622955248033e-003
1.27350308101665e+001	4.14145890365404e-001,-1.22905587778215e-003
1.27643880881134e+001	4.14145678930913e-001,-1.23188871548518e-003
1.27938130415752e+001	4.14145466520426e-001,-1.23472808058157e-003
1.28233058265601e+001	4.14145253129437e-001,-1.23757398809794e-003
1.28528665994361e+001	4.14145038753421e-001,-1.24042645309534e-003
1.28824955169313e+001	4.14144823387829e-001,-1.24328549066948e-003
1.29121927361353e+001	4.14144607028095e-001,-1.24615111595063e-003
1.29419584144998e+001	4.14144389669627e-001,-1.24902334410388e-003
1.29717927098395e+001	4.14144171307816e-001,-1.25190219032907e-003
1.30016957803328e+001	4.14143951938030e-001,-1.25478766986097e-003
1.30316677845229e+001	4.14143731555616e-001,-1.25767979796929e-003
1.30617088813183e+001	4.14143510155900e-001,-1.26057858995882e-003
1.30918192299940e+001	4.14143287734184e-001,-1.26348406116946e-003
1.31219989901920e+001	4.14143064285751e-001,-1.26639622697633e-003
1.31522483219223e+001	4.14142839805862e-001,-1.26931510278983e-003
1.31825673855640e+001	4.14142614289754e-001,-1.27224070405573e-003
1.32129563418657e+001	4.14142387732644e-001,-1.27517304625528e-003
1.32434153519466e+001	4.14142160129727e-001,-1.27811214490524e-003
1.32739445772973e+001	4.14141931476174e-001,-1.28105801555795e-003
1.33045441797808e+001	4.14141701767136e-001,-1.28401067380150e-003
1.33352143216332e+001	4.14141470997740e-001,-1.28697013525973e-003
1.33659551654643e+001	4.14141239163091e-001,-1.28993641559234e-003
1.33967668742593e+001	4.14141006258270e-001,-1.29290953049496e-003
1.34276496113785e+001	4.14140772278339e-001,-1.29588949569922e-003
1.34586035405594e+001	4.14140537218333e-001,-1.29887632697290e-003
1.34896288259164e+001	4.14140301073268e-001,-1.30187004011994e-003
1.35207256319427e+001	4.14140063838133e-001,-1.30487065098053e-003
1.35518941235103e+001	4.14139825507896e-001,-1.30787817543121e-003
1.35831344658714e+001	4.14139586077502e-001,-1.31089262938499e-003
1.36144468246594e+001	4.14139345541872e-001,-1.31391402879134e-003
1.36458313658891e+001	4.14139103895905e-001,-1.31694238963638e-003
1.36772882559584e+001	4.14138861134474e-001,-1.31997772794286e-003
1.37088176616484e+001	4.14138617252429e-001,-1.32302005977031e-003
1.37404197501251e+001	4.14138372244598e-001,-1.32606940121510e-003
1.37720946889394e+001	4.14138126105783e-001,-1.32912576841058e-003
1.38038426460287e+001	4.14137878830763e-001,-1.33218917752704e-003
1.38356637897177e+001	4.14137630414293e-001,-1.33525964477192e-003
1.38675582887188e+001	4.14137380851104e-001,-1.33833718638982e-003
1.38995263121334e+001	4.14137130135902e-001,-1.34142181866261e-003
1.39315680294529e+001	4.14136878263368e-001,-1.34451355790952e-003
1.39636836105593e+001	4.14136625228161e-001,-1.34761242048720e-003
1.39958732257261e+001	4.14136371024911e-001,-1.35071842278984e-003
1.40281370456195e+001	4.14136115648228e-001,-1.35383158124922e-003
1.40604752412990e+001	4.14135859092694e-001,-1.35695191233483e-003
1.40928879842186e+001	4.14135601352867e-001,-1.36007943255393e-003
1.41253754462274e+001	4.14135342423279e-001,-1.36321415845164e-003
1.41579377995707e+001	4.14135082298439e-001,-1.36635610661102e-003
1.41905752168908e+001	4.14134820972828e-001,-1.36950529365320e-003
1.42232878712281e+001	4.14134558440904e-001,-1.37266173623738e-003
1.42560759360218e+001	4.14134294697096e-001,-1.37582545106102e-003
1.42889395851109e+001	4.14134029735811e-001,-1.37899645485984e-003
1.43218789927353e+001	4.14133763551428e-001,-1.38217476440796e-003
1.43548943335364e+001	4.14133496138300e-001,-1.38536039651796e-003
1.43879857825583e+001	4.14133227490756e-001,-1.38855336804099e-003
1.44211535152486e+001	4.14132957603096e-001,-1.39175369586682e-003
1.44543977074592e+001	4.14132686469595e-001,-1.39496139692398e-003
1.44877185354475e+001	4.14132414084503e-001,-1.39817648817980e-003
1.45211161758773e+001	4.14132140442041e-001,-1.40139898664053e-003
1.45545908058195e+001	4.14131865536404e-001,-1.40462890935140e-003
1.45881426027534e+001	4.14131589361761e-001,-1.40786627339674e-003
1.46217717445671e+001	4.14131311912253e-001,-1.41111109590004e-003
1.46554784095590e+001	4.14131033181996e-001,-1.41436339402406e-003
1.46892627764385e+001	4.14130753165076e-001,-1.41762318497092e-003
1.47231250243271e+001	4.14130471855554e-001,-1.42089048598217e-003
1.47570653327588e+001	4.14130189247461e-001,-1.42416531433889e-003
1.47910838816819e+001	4.14129905334805e-001,-1.42744768736176e-003
1.48251808514594e+001	4.14129620111561e-001,-1.43073762241120e-003
1.48593564228699e+001	4.14129333571679e-001,-1.43403513688741e-003
1.48936107771090e+001	4.14129045709082e-001,-1.43734024823051e-003
1.49279440957898e+001	4.14128756517662e-001,-1.44065297392055e-003
1.49623565609442e+001	4.14128465991286e-001,-1.44397333147768e-003
1.49968483550236e+001	4.14128174123790e-001,-1.44730133846223e-003
1.50314196609001e+001	4.14127880908982e-001,-1.45063701247473e-003
1.50660706618673e+001	4.14127586340644e-001,-1.45398037115610e-003
1.51008015416413e+001	4.14127290412526e-001,-1.45733143218767e-003
1.51356124843619e+001	4.14126993118350e-001,-1.46069021329130e-003
1.51705036745932e+001	4.14126694451812e-001,-1.46405673222948e-003
1.52054752973248e+001	4.14126394406574e-001,-1.46743100680540e-003
1.52405275379728e+001	4.14126092976271e-001,-1.47081305486306e-003
1.52756605823806e+001	4.14125790154510e-001,-1.47420289428733e-003
1.53108746168202e+001	4.14125485934867e-001,-1.47760054300412e-003
1.53461698279928e+001	4.14125180310889e-001,-1.48100601898035e-003
1.53815464030302e+001	4.14124873276090e-001,-1.48441934022417e-003
1.54170045294954e+001	4.14124564823961e-001,-1.48784052478497e-003
1.54525443953840e+001	4.14124254947955e-001,-1.49126959075351e-003
1.54881661891247e+001	4.14123943641502e-001,-1.49470655626199e-003
1.55238700995807e+001	4.14123630897995e-001,-1.49815143948418e-003
1.55596563160506e+001	4.14123316710801e-001,-1.50160425863546e-003
1.55955250282694e+001	4.14123001073256e-001,-1.50506503197298e-003
1.56314764264094e+001	4.14122683978662e-001,-1.50853377779570e-003
1.56675107010813e+001	4.14122365420295e-001,-1.51201051444452e-003
1.57036280433354e+001	4.14122045391396e-001,-1.51549526030231e-003
1.57398286446620e+001	4.14121723885176e-001,-1.51898803379412e-003
1.57761126969933e+001	4.14121400894814e-001,-1.52248885338718e-003
1.58124803927037e+001	4.14121076413460e-001,-1.52599773759103e-003
1.58489319246110e+001	4.14120750434229e-001,-1.52951470495758e-003
1.58854674859776e+001	4.14120422950207e-001,-1.53303977408130e-003
1.59220872705115e+001	4.14120093954447e-001,-1.53657296359920e-003
1.59587914723672e+001	4.14119763439969e-001,-1.54011429219099e-003
1.59955802861465e+001	4.14119431399763e-001,-1.54366377857920e-003
1.60324539069002e+001	4.14119097826782e-001,-1.54722144152918e-003
1.60694125301286e+001	4.14118762713953e-001,-1.55078729984932e-003
1.61064563517825e+001	4.14118426054166e-001,-1.55436137239105e-003
1.61435855682647e+001	4.14118087840279e-001,-1.55794367804898e-003
1.61808003764305e+001	4.14117748065118e-001,-1.56153423576100e-003
1.62181009735891e+001	4.14117406721474e-001,-1.56513306450838e-003
1.62554875575047e+001	4.14117063802105e-001,-1.56874018331581e-003
1.62929603263970e+001	4.14116719299739e-001,-1.57235561125161e-003
1.63305194789432e+001	4.14116373207066e-001,-1.57597936742770e-003
1.63681652142779e+001	4.14116025516744e-001,-1.57961147099982e-003
1.64058977319952e+001	4.14115676221398e-001,-1.58325194116754e-003
1.64437172321491e+001	4.14115325313618e-001,-1.58690079717439e-003
1.64816239152549e+001	4.14114972785959e-001,-1.59055805830795e-003
1.65196179822900e+001	4.14114618630943e-001,-1.59422374390001e-003
1.65576996346951e+001	4.14114262841057e-001,-1.59789787332654e-003
1.65958690743754e+001	4.14113905408753e-001,-1.60158046600796e-003
1.66341265037015e+001	4.14113546326449e-001,-1.60527154140905e-003
1.66724721255104e+001	4.14113185586526e-001,-1.60897111903923e-003
1.67109061431069e+001	4.14112823181333e-001,-1.61267921845254e-003
1.67494287602642e+001	4.14112459103181e-001,-1.61639585924778e-003
1.67880401812254e+001	4.14112093344346e-001,-1.62012106106864e-003
1.68267406107045e+001	4.14111725897069e-001,-1.62385484360373e-003
1.68655302538872e+001	4.14111356753556e-001,-1.62759722658677e-003
1.69044093164324e+001	4.14110985905974e-001,-1.63134822979661e-003
1.69433780044731e+001	4.14110613346457e-001,-1.63510787305736e-003
1.69824365246172e+001	4.14110239067101e-001,-1.63887617623857e-003
1.70215850839493e+001	4.14109863059966e-001,-1.64265315925516e-003
1.70608238900310e+001	4.14109485317075e-001,-1.64643884206772e-003
1.71001531509027e+001	4.14109105830414e-001,-1.65023324468242e-003
1.71395730750841e+001	4.14108724591934e-001,-1.65403638715131e-003
1.71790838715757e+001	4.14108341593546e-001,-1.65784828957227e-003
1.72186857498599e+001	4.14107956827124e-001,-1.66166897208915e-003
1.72583789199018e+001	4.14107570284508e-001,-1.66549845489194e-003
1.72981635921508e+001	4.14107181957494e-001,-1.66933675821678e-003
1.73380399775412e+001	4.14106791837848e-001,-1.67318390234613e-003
1.73780082874935e+001	4.14106399917290e-001,-1.67703990760885e-003
1.74180687339159e+001	4.14106006187507e-001,-1.68090479438031e-003
1.74582215292048e+001	4.14105610640147e-001,-1.68477858308248e-003
1.74984668862464e+001	4.14105213266817e-001,-1.68866129418406e-003
1.75388050184174e+001	4.14104814059088e-001,-1.69255294820054e-003
1.75792361395867e+001	4.14104413008491e-001,-1.69645356569441e-003
1.76197604641161e+001	4.14104010106516e-001,-1.70036316727511e-003
1.76603782068614e+001	4.14103605344617e-001,-1.70428177359928e-003
1.77010895831740e+001	4.14103198714208e-001,-1.70820940537076e-003
1.77418948089014e+001	4.14102790206660e-001,-1.71214608334078e-003
1.77827941003890e+001	4.14102379813308e-001,-1.71609182830800e-003
1.78237876744807e+001	4.14101967525444e-001,-1.72004666111865e-003
1.78648757485203e+001	4.14101553334323e-001,-1.72401060266664e-003
1.79060585403527e+001	4.14101137231158e-001,-1.72798367389366e-003
1.79473362683250e+001	4.14100719207120e-001,-1.73196589578927e-003
1.79887091512877e+001	4.14100299253341e-001,-1.73595728939104e-003
1.80301774085955e+001	4.14099877360911e-001,-1.73995787578464e-003
1.80717412601090e+001	4.14099453520881e-001,-1.74396767610395e-003
1.81134009261958e+001	4.14099027724258e-001,-1.74798671153116e-003
1.81551566277311e+001	4.14098599962009e-001,-1.75201500329688e-003
1.81970085860996e+001	4.14098170225059e-001,-1.75605257268028e-003
1.82389570231961e+001	4.14097738504290e-001,-1.76009944100917e-003
1.82810021614272e+001	4.14097304790544e-001,-1.76415562966011e-003
1.83231442237119e+001	4.14096869074619e-001,-1.76822116005851e-003
1.83653834334832e+001	4.14096431347271e-001,-1.77229605367875e-003
1.84077200146893e+001	4.14095991599214e-001,-1.77638033204435e-003
1.84501541917945e+001	4.14095549821118e-001,-1.78047401672794e-003
1.84926861897805e+001	4.14095106003610e-001,-1.78457712935153e-003
1.85353162341479e+001	4.14094660137275e-001,-1.78868969158648e-003
1.85780445509167e+001	4.14094212212654e-001,-1.79281172515374e-003
1.86208713666284e+001	4.14093762220242e-001,-1.79694325182384e-003
1.86637969083464e+001	4.14093310150495e-001,-1.80108429341709e-003
1.87068214036578e+001	4.14092855993819e-001,-1.80523487180366e-003
1.87499450806739e+001	4.14092399740580e-001,-1.80939500890367e-003
1.87931681680324e+001	4.14091941381099e-001,-1.81356472668737e-003
1.88364908948977e+001	4.14091480905650e-001,-1.81774404717513e-003
1.88799134909627e+001	4.14091018304465e-001,-1.82193299243773e-003
1.89234361864495e+001	4.14090553567728e-001,-1.82613158459626e-003
1.89670592121112e+001	4.14090086685580e-001,-1.83033984582245e-003
1.90107827992327e+001	4.14089617648116e-001,-1.83455779833861e-003
1.90546071796322e+001	4.14089146445384e-001,-1.83878546441781e-003
1.90985325856621e+001	4.14088673067387e-001,-1.84302286638405e-003
1.91425592502106e+001	4.14088197504083e-001,-1.84727002661228e-003
1.91866874067026e+001	4.14087719745381e-001,-1.85152696752854e-003
1.92309172891013e+001	4.14087239781145e-001,-1.85579371161015e-003
1.92752491319091e+001	4.14086757601192e-001,-1.86007028138568e-003
1.93196831701690e+001	4.14086273195291e-001,-1.86435669943523e-003
1.93642196394658e+001	4.14085786553167e-001,-1.86865298839041e-003
1.94088587759275e+001	4.14085297664493e-001,-1.87295917093448e-003
1.94536008162263e+001	4.14084806518898e-001,-1.87727526980261e-003
1.94984459975802e+001	4.14084313105961e-001,-1.88160130778176e-003
1.95433945577537e+001	4.14083817415213e-001,-1.88593730771097e-003
1.95884467350596e+001	4.14083319436138e-001,-1.89028329248145e-003
1.96336027683602e+001	4.14082819158170e-001,-1.89463928503661e-003
1.96788628970682e+001	4.14082316570695e-001,-1.89900530837226e-003
1.97242273611483e+001	4.14081811663050e-001,-1.90338138553672e-003
1.97696964011183e+001	4.14081304424522e-001,-1.90776753963091e-003
1.98152702580507e+001	4.14080794844349e-001,-1.91216379380847e-003
