Freq.	(-V(v1)*10000/(V(v2)-V(v1)))-10000
1.00000000000000e+001	1.15945505065261e+004,-5.90201991985692e+001
1.02329299228075e+001	1.15945251140043e+004,-6.03948015276533e+001
1.04712854805090e+001	1.15944985248488e+004,-6.18014113934494e+001
1.07151930523761e+001	1.15944706826714e+004,-6.32407735559681e+001
1.09647819614319e+001	1.15944415284275e+004,-6.47136500663287e+001
1.12201845430196e+001	1.15944110002903e+004,-6.62208206654576e+001
1.14815362149688e+001	1.15943790335204e+004,-6.77630831918166e+001
1.17489755493953e+001	1.15943455603280e+004,-6.93412539983048e+001
1.20226443461741e+001	1.15943105097297e+004,-7.09561683785204e+001
1.23026877081238e+001	1.15942738073979e+004,-7.26086810026304e+001
1.25892541179417e+001	1.15942353755033e+004,-7.42996663629911e+001
1.28824955169313e+001	1.15941951325499e+004,-7.60300192297218e+001
1.31825673855641e+001	1.15941529932027e+004,-7.78006551165042e+001
1.34896288259165e+001	1.15941088681064e+004,-7.96125107567111e+001
1.38038426460288e+001	1.15940626636966e+004,-8.14665445901522e+001
1.41253754462275e+001	1.15940142820012e+004,-8.33637372606060e+001
1.44543977074593e+001	1.15939636204331e+004,-8.53050921243757e+001
1.47910838816821e+001	1.15939105715729e+004,-8.72916357700495e+001
1.51356124843621e+001	1.15938550229411e+004,-8.93244185497412e+001
1.54881661891248e+001	1.15937968567604e+004,-9.14045151219569e+001
1.58489319246111e+001	1.15937359497060e+004,-9.35330250063813e+001
1.62181009735893e+001	1.15936721726443e+004,-9.57110731507353e+001
1.65958690743756e+001	1.15936053903599e+004,-9.79398105100071e+001
1.69824365246174e+001	1.15935354612690e+004,-1.00220414638197e+002
1.73780082874937e+001	1.15934622371198e+004,-1.02554090292879e+002
1.77827941003892e+001	1.15933855626786e+004,-1.04942070052725e+002
1.81970085860998e+001	1.15933052754016e+004,-1.07385614948356e+002
1.86208713666287e+001	1.15932212050904e+004,-1.09886015106512e+002
1.90546071796325e+001	1.15931331735322e+004,-1.12444590408051e+002
1.94984459975804e+001	1.15930409941225e+004,-1.15062691159746e+002
1.99526231496888e+001	1.15929444714706e+004,-1.17741698780304e+002
2.04173794466953e+001	1.15928434009861e+004,-1.20483026500677e+002
2.08929613085404e+001	1.15927375684461e+004,-1.23288120078964e+002
2.13796208950223e+001	1.15926267495425e+004,-1.26158458530114e+002
2.18776162394955e+001	1.15925107094073e+004,-1.29095554870602e+002
2.23872113856834e+001	1.15923892021165e+004,-1.32100956878360e+002
2.29086765276777e+001	1.15922619701699e+004,-1.35176247868040e+002
2.34422881531992e+001	1.15921287439469e+004,-1.38323047481957e+002
2.39883291901949e+001	1.15919892411371e+004,-1.41543012496751e+002
2.45470891568503e+001	1.15918431661436e+004,-1.44837837646101e+002
2.51188643150958e+001	1.15916902094584e+004,-1.48209256459504e+002
2.57039578276886e+001	1.15915300470094e+004,-1.51659042117381e+002
2.63026799189538e+001	1.15913623394754e+004,-1.55189008322669e+002
2.69153480392691e+001	1.15911867315704e+004,-1.58801010188962e+002
2.75422870333816e+001	1.15910028512931e+004,-1.62496945145341e+002
2.81838293126445e+001	1.15908103091428e+004,-1.66278753858087e+002
2.88403150312660e+001	1.15906086972969e+004,-1.70148421169229e+002
2.95120922666638e+001	1.15903975887515e+004,-1.74107977052087e+002
3.01995172040201e+001	1.15901765364205e+004,-1.78159497583842e+002
3.09029543251359e+001	1.15899450721938e+004,-1.82305105935126e+002
3.16227766016838e+001	1.15897027059507e+004,-1.86546973376654e+002
3.23593656929628e+001	1.15894489245271e+004,-1.90887320302853e+002
3.31131121482591e+001	1.15891831906357e+004,-1.95328417272457e+002
3.38844156139202e+001	1.15889049417340e+004,-1.99872586065920e+002
3.46736850452531e+001	1.15886135888414e+004,-2.04522200759546e+002
3.54813389233575e+001	1.15883085152994e+004,-2.09279688816150e+002
3.63078054770101e+001	1.15879890754759e+004,-2.14147532192048e+002
3.71535229097172e+001	1.15876545934072e+004,-2.19128268460100e+002
3.80189396320561e+001	1.15873043613788e+004,-2.24224491948467e+002
3.89045144994280e+001	1.15869376384384e+004,-2.29438854894724e+002
3.98107170553497e+001	1.15865536488412e+004,-2.34774068614934e+002
4.07380277804112e+001	1.15861515804221e+004,-2.40232904687058e+002
4.16869383470335e+001	1.15857305828930e+004,-2.45818196148321e+002
4.26579518801592e+001	1.15852897660607e+004,-2.51532838705654e+002
4.36515832240165e+001	1.15848281979623e+004,-2.57379791958689e+002
4.46683592150962e+001	1.15843449029147e+004,-2.63362080634297e+002
4.57088189614874e+001	1.15838388594732e+004,-2.69482795831895e+002
4.67735141287197e+001	1.15833089982963e+004,-2.75745096278393e+002
4.78630092322638e+001	1.15827541999118e+004,-2.82152209591660e+002
4.89778819368445e+001	1.15821732923796e+004,-2.88707433551261e+002
5.01187233627271e+001	1.15815650488473e+004,-2.95414137375057e+002
5.12861383991364e+001	1.15809281849928e+004,-3.02275763000090e+002
5.24807460249772e+001	1.15802613563494e+004,-3.09295826366089e+002
5.37031796370252e+001	1.15795631555087e+004,-3.16477918699741e+002
5.49540873857624e+001	1.15788321091945e+004,-3.23825707797641e+002
5.62341325190348e+001	1.15780666752028e+004,-3.31342939305693e+002
5.75439937337156e+001	1.15772652392023e+004,-3.39033437992596e+002
5.88843655355588e+001	1.15764261113883e+004,-3.46901109014616e+002
6.02559586074357e+001	1.15755475229843e+004,-3.54949939168883e+002
6.16595001861481e+001	1.15746276225845e+004,-3.63183998131919e+002
6.30957344480192e+001	1.15736644723292e+004,-3.71607439680116e+002
6.45654229034654e+001	1.15726560439083e+004,-3.80224502888237e+002
6.60693448007595e+001	1.15716002143822e+004,-3.89039513302088e+002
6.76082975391980e+001	1.15704947618148e+004,-3.98056884080904e+002
6.91830970918935e+001	1.15693373607094e+004,-4.07281117104603e+002
7.07945784384136e+001	1.15681255772391e+004,-4.16716804040908e+002
7.24435960074988e+001	1.15668568642633e+004,-4.26368627366707e+002
7.41310241300916e+001	1.15655285561205e+004,-4.36241361337660e+002
7.58577575029182e+001	1.15641378631892e+004,-4.46339872899534e+002
7.76247116628690e+001	1.15626818662062e+004,-4.56669122534250e+002
7.94328234724279e+001	1.15611575103322e+004,-4.67234165033222e+002
8.12830516164097e+001	1.15595615989548e+004,-4.78040150189615e+002
8.31763771102669e+001	1.15578907872180e+004,-4.89092323400948e+002
8.51138038202374e+001	1.15561415752672e+004,-5.00396026172442e+002
8.70963589956078e+001	1.15543103011967e+004,-5.11956696511113e+002
8.91250938133743e+001	1.15523931336909e+004,-5.23779869199430e+002
9.12010839355907e+001	1.15503860643437e+004,-5.35871175936998e+002
9.33254300796988e+001	1.15482848996460e+004,-5.48236345337511e+002
9.54992586021433e+001	1.15460852526267e+004,-5.60881202767362e+002
9.77237220955808e+001	1.15437825341351e+004,-5.73811670011399e+002
9.99999999999997e+001	1.15413719437504e+004,-5.87033764750176e+002
1.02329299228075e+002	1.15388484603048e+004,-6.00553599831742e+002
1.04712854805090e+002	1.15362068320052e+004,-6.14377382320237e+002
1.07151930523760e+002	1.15334415661403e+004,-6.28511412301694e+002
1.09647819614318e+002	1.15305469183565e+004,-6.42962081426580e+002
1.12201845430196e+002	1.15275168814893e+004,-6.57735871166812e+002
1.14815362149688e+002	1.15243451739336e+004,-6.72839350763547e+002
1.17489755493953e+002	1.15210252275374e+004,-6.88279174840394e+002
1.20226443461741e+002	1.15175501750048e+004,-7.04062080654861e+002
1.23026877081238e+002	1.15139128367906e+004,-7.20194884959062e+002
1.25892541179416e+002	1.15101057074714e+004,-7.36684480438610e+002
1.28824955169313e+002	1.15061209415779e+004,-7.53537831696601e+002
1.31825673855640e+002	1.15019503388724e+004,-7.70761970747283e+002
1.34896288259165e+002	1.14975853290550e+004,-7.88363991981694e+002
1.38038426460288e+002	1.14930169558852e+004,-8.06351046564900e+002
1.41253754462275e+002	1.14882358607011e+004,-8.24730336222009e+002
1.44543977074592e+002	1.14832322653246e+004,-8.43509106367066e+002
1.47910838816820e+002	1.14779959543366e+004,-8.62694638526170e+002
1.51356124843620e+002	1.14725162567096e+004,-8.82294242002882e+002
1.54881661891248e+002	1.14667820267858e+004,-9.02315244730657e+002
1.58489319246111e+002	1.14607816245879e+004,-9.22764983253672e+002
1.62181009735892e+002	1.14545028954549e+004,-9.43650791773549e+002
1.65958690743755e+002	1.14479331489917e+004,-9.64979990195749e+002
1.69824365246174e+002	1.14410591373276e+004,-9.86759871105249e+002
1.73780082874937e+002	1.14338670326769e+004,-1.00899768559690e+003
1.77827941003892e+002	1.14263424042004e+004,-1.03170062788135e+003
1.81970085860998e+002	1.14184701941671e+004,-1.05487581858280e+003
1.86208713666286e+002	1.14102346934176e+004,-1.07853028663985e+003
1.90546071796324e+002	1.14016195161370e+004,-1.10267094971576e+003
1.94984459975804e+002	1.13926075739456e+004,-1.12730459301905e+003
1.99526231496887e+002	1.13831810493219e+004,-1.15243784642992e+003
2.04173794466952e+002	1.13733213683752e+004,-1.17807715982213e+003
2.08929613085403e+002	1.13630091729935e+004,-1.20422877646441e+003
2.13796208950222e+002	1.13522242923934e+004,-1.23089870437899e+003
2.18776162394954e+002	1.13409457141102e+004,-1.25809268552898e+003
2.23872113856833e+002	1.13291515544697e+004,-1.28581616269979e+003
2.29086765276776e+002	1.13168190285925e+004,-1.31407424393316e+003
2.34422881531991e+002	1.13039244199913e+004,-1.34287166436617e+003
2.39883291901948e+002	1.12904430498290e+004,-1.37221274532041e+003
2.45470891568502e+002	1.12763492459182e+004,-1.40210135048032e+003
2.51188643150957e+002	1.12616163115527e+004,-1.43254083899260e+003
2.57039578276885e+002	1.12462164942739e+004,-1.46353401531244e+003
2.63026799189537e+002	1.12301209546925e+004,-1.49508307561540e+003
2.69153480392690e+002	1.12132997354946e+004,-1.52718955058797e+003
2.75422870333816e+002	1.11957217307838e+004,-1.55985424440344e+003
2.81838293126444e+002	1.11773546559258e+004,-1.59307716968463e+003
2.88403150312659e+002	1.11581650180814e+004,-1.62685747824940e+003
2.95120922666637e+002	1.11381180876357e+004,-1.66119338743086e+003
3.01995172040200e+002	1.11171778707535e+004,-1.69608210176019e+003
3.09029543251358e+002	1.10953070833162e+004,-1.73151972979726e+003
3.16227766016837e+002	1.10724671265201e+004,-1.76750119589240e+003
3.23593656929627e+002	1.10486180644462e+004,-1.80402014666244e+003
3.31131121482590e+002	1.10237186039417e+004,-1.84106885196481e+003
3.38844156139201e+002	1.09977260771847e+004,-1.87863810015633e+003
3.46736850452530e+002	1.09705964273389e+004,-1.91671708742836e+003
3.54813389233574e+002	1.09422841977436e+004,-1.95529330101623e+003
3.63078054770100e+002	1.09127425251203e+004,-1.99435239609132e+003
3.71535229097171e+002	1.08819231373213e+004,-2.03387806615583e+003
3.80189396320559e+002	1.08497763561877e+004,-2.07385190677686e+003
3.89045144994279e+002	1.08162511061319e+004,-2.11425327251525e+003
3.98107170553495e+002	1.07812949291045e+004,-2.15505912692888e+003
4.07380277804111e+002	1.07448540066602e+004,-2.19624388555830e+003
4.16869383470333e+002	1.07068731898839e+004,-2.23777925183585e+003
4.26579518801591e+002	1.06672960379968e+004,-2.27963404589894e+003
4.36515832240164e+002	1.06260648665135e+004,-2.32177402633342e+003
4.46683592150961e+002	1.05831208058788e+004,-2.36416170492515e+003
4.57088189614873e+002	1.05384038715713e+004,-2.40675615455804e+003
4.67735141287196e+002	1.04918530467129e+004,-2.44951281046420e+003
4.78630092322636e+002	1.04434063782859e+004,-2.49238326510916e+003
4.89778819368444e+002	1.03930010881100e+004,-2.53531505708065e+003
5.01187233627270e+002	1.03405736997874e+004,-2.57825145444630e+003
5.12861383991362e+002	1.02860601828738e+004,-2.62113123315243e+003
5.24807460249770e+002	1.02293961155799e+004,-2.66388845115472e+003
5.37031796370250e+002	1.01705168673499e+004,-2.70645221910229e+003
5.49540873857622e+002	1.01093578026971e+004,-2.74874646853959e+003
5.62341325190346e+002	1.00458545077045e+004,-2.79068971874736e+003
5.75439937337154e+002	9.97994304061468e+003,-2.83219484351285e+003
5.88843655355586e+002	9.91156020793787e+003,-2.87316883930349e+003
6.02559586074355e+002	9.84064386749834e+003,-2.91351259651483e+003
6.16595001861479e+002	9.76713325981410e+003,-2.95312067567453e+003
6.30957344480190e+002	9.69096936916075e+003,-2.99188109070793e+003
6.45654229034652e+002	9.61209531560469e+003,-3.02967510160727e+003
6.60693448007592e+002	9.53045677920144e+003,-3.06637701909518e+003
6.76082975391978e+002	9.44600245743798e+003,-3.10185402413123e+003
6.91830970918933e+002	9.35868455685006e+003,-3.13596600537773e+003
7.07945784384134e+002	9.26845931956531e+003,-3.16856541801484e+003
7.24435960074986e+002	9.17528758530449e+003,-3.19949716757182e+003
7.41310241300914e+002	9.07913538911599e+003,-3.22859852271940e+003
7.58577575029180e+002	8.97997459481753e+003,-3.25569906124234e+003
7.76247116628688e+002	8.87778356377170e+003,-3.28062065367672e+003
7.94328234724277e+002	8.77254785822662e+003,-3.30317748934979e+003
8.12830516164095e+002	8.66426097800531e+003,-3.32317614979233e+003
8.31763771102666e+002	8.55292512882776e+003,-3.34041573470062e+003
8.51138038202372e+002	8.43855201999528e+003,-3.35468804579739e+003
8.70963589956076e+002	8.32116368855791e+003,-3.36577783407161e+003
8.91250938133741e+002	8.20079334642314e+003,-3.37346311595580e+003
9.12010839355905e+002	8.07748624614898e+003,-3.37751556401758e+003
9.33254300796986e+002	7.95130056040052e+003,-3.37770097768845e+003
9.54992586021431e+002	7.82230826923968e+003,-3.37377983941776e+003
9.77237220955805e+002	7.69059604857110e+003,-3.36550796141102e+003
9.99999999999994e+002	7.55626615218882e+003,-3.35263722777946e+003
1.02329299228075e+003	7.41943727897064e+003,-3.33491643648085e+003
1.04712854805089e+003	7.28024541586049e+003,-3.31209224485918e+003
1.07151930523760e+003	7.13884464637990e+003,-3.28391022188448e+003
1.09647819614318e+003	6.99540791353261e+003,-3.25011600934484e+003
1.12201845430196e+003	6.85012772513241e+003,-3.21045659324450e+003
1.14815362149688e+003	6.70321678881350e+003,-3.16468168551013e+003
1.17489755493952e+003	6.55490856329901e+003,-3.11254521480053e+003
1.20226443461741e+003	6.40545771193155e+003,-3.05380692375433e+003
1.23026877081237e+003	6.25514044403703e+003,-2.98823406840049e+003
1.25892541179416e+003	6.10425472942638e+003,-2.91560321370756e+003
1.28824955169313e+003	5.95312037126818e+003,-2.83570211737207e+003
1.31825673855640e+003	5.80207892271572e+003,-2.74833169196403e+003
1.34896288259165e+003	5.65149343307196e+003,-2.65330803348118e+003
1.38038426460288e+003	5.50174800995020e+003,-2.55046450224271e+003
1.41253754462275e+003	5.35324718485852e+003,-2.43965383991273e+003
1.44543977074592e+003	5.20641507092123e+003,-2.32075030432279e+003
1.47910838816820e+003	5.06169430306242e+003,-2.19365180170624e+003
1.51356124843620e+003	4.91954475292374e+003,-2.05828199401486e+003
1.54881661891247e+003	4.78044201306844e+003,-1.91459235721097e+003
1.58489319246110e+003	4.64487564763027e+003,-1.76256416487317e+003
1.62181009735892e+003	4.51334720947955e+003,-1.60221037017556e+003
1.65958690743755e+003	4.38636802717365e+003,-1.43357735835617e+003
1.69824365246173e+003	4.26445676839764e+003,-1.25674654123395e+003
1.73780082874936e+003	4.14813679023601e+003,-1.07183576521610e+003
1.77827941003891e+003	4.03793329038947e+003,-8.79000504603308e+002
1.81970085860997e+003	3.93437027729679e+003,-6.78434812887401e+002
1.86208713666286e+003	3.83796738096420e+003,-4.70372006171731e+002
1.90546071796323e+003	3.74923653006141e+003,-2.55085054846200e+002
1.94984459975803e+003	3.66867852442761e+003,-3.28866622187871e+001
1.99526231496887e+003	3.59677953545015e+003,1.95870988065325e+002
2.04173794466952e+003	3.53400756974392e+003,4.30796830324778e+002
2.08929613085403e+003	3.48080893407905e+003,6.71461871219284e+002
2.13796208950222e+003	3.43760474149585e+003,9.17400505973746e+002
2.18776162394954e+003	3.40478749993099e+003,1.16811219727526e+003
2.23872113856832e+003	3.38271782539318e+003,1.42306351245026e+003
2.29086765276776e+003	3.37172132171666e+003,1.68169050913674e+003
2.34422881531991e+003	3.37208566815128e+003,1.94340145421072e+003
2.39883291901947e+003	3.38405795450034e+003,2.20757985532113e+003
2.45470891568501e+003	3.40784230119289e+003,2.47358777915843e+003
2.51188643150956e+003	3.44359779859718e+003,2.74076942564639e+003
2.57039578276885e+003	3.49143679609019e+003,3.00845492272692e+003
2.63026799189536e+003	3.55142356695514e+003,3.27596430241161e+003
2.69153480392690e+003	3.62357337016748e+003,3.54261161540668e+003
2.75422870333815e+003	3.70785192464854e+003,3.80770913896388e+003
2.81838293126443e+003	3.80417530572497e+003,4.07057163074024e+003
2.88403150312659e+003	3.91241026745878e+003,4.33052058041698e+003
2.95120922666636e+003	4.03237498833543e+003,4.58688841065796e+003
3.01995172040199e+003	4.16384023165100e+003,4.83902257969294e+003
3.09029543251357e+003	4.30653090596034e+003,5.08628953937125e+003
3.16227766016836e+003	4.46012800526376e+003,5.32807850491215e+003
3.23593656929626e+003	4.62427090334010e+003,5.56380499571898e+003
3.31131121482589e+003	4.79855997189282e+003,5.79291411044937e+003
3.38844156139200e+003	4.98255948805003e+003,6.01488350394826e+003
3.46736850452529e+003	5.17580079333032e+003,6.22922603854679e+003
3.54813389233573e+003	5.37778566350778e+003,6.43549208749384e+003
3.63078054770099e+003	5.58798984691675e+003,6.63327147379251e+003
3.71535229097170e+003	5.80586672764743e+003,6.82219503333915e+003
3.80189396320558e+003	6.03085106978541e+003,7.00193579688134e+003
3.89045144994278e+003	6.26236279932369e+003,7.17220979081073e+003
3.98107170553494e+003	6.49981078157203e+003,7.33277646207087e+003
4.07380277804110e+003	6.74259655375403e+003,7.48343873739708e+003
4.16869383470332e+003	6.99011797493834e+003,7.62404273162529e+003
4.26579518801589e+003	7.24177275841811e+003,7.75447712384457e+003
4.36515832240162e+003	7.49696185503786e+003,7.87467222366428e+003
4.46683592150960e+003	7.75509265967884e+003,7.98459875278992e+003
4.57088189614871e+003	8.01558201705316e+003,8.08426636942783e+003
4.67735141287194e+003	8.27785900703176e+003,8.17372196476228e+003
4.78630092322634e+003	8.54136749384976e+003,8.25304776188157e+003
4.89778819368442e+003	8.80556842761259e+003,8.32235924809175e+003
5.01187233627268e+003	9.06994189048699e+003,8.38180297158455e+003
5.12861383991361e+003	9.33398888374435e+003,8.43155423296009e+003
5.24807460249768e+003	9.59723285536094e+003,8.47181470119946e+003
5.37031796370248e+003	9.85922097113657e+003,8.50280998238944e+003
5.49540873857620e+003	1.01195251352266e+004,8.52478716788333e+003
5.62341325190344e+003	1.03777427685708e+004,8.53801238669832e+003
5.75439937337152e+003	1.06334973559323e+004,8.54276838485940e+003
5.88843655355584e+003	1.08864387741242e+004,8.53935215216258e+003
6.02559586074353e+003	1.11362434155043e+004,8.52807261450402e+003
6.16595001861477e+003	1.13826141219712e+004,8.50924840754698e+003
6.30957344480188e+003	1.16252799455145e+004,8.48320574513953e+003
6.45654229034650e+003	1.18639957518764e+004,8.45027639357439e+003
6.60693448007590e+003	1.20985416841071e+004,8.41079576054450e+003
6.76082975391976e+003	1.23287225027551e+004,8.36510110552178e+003
6.91830970918931e+003	1.25543668191740e+004,8.31352987629137e+003
7.07945784384132e+003	1.27753262379630e+004,8.25641817452946e+003
7.24435960074984e+003	1.29914744239359e+004,8.19409935163244e+003
7.41310241300911e+003	1.32027061082510e+004,8.12690273449753e+003
7.58577575029177e+003	1.34089360474650e+004,8.05515247961667e+003
7.76247116628685e+003	1.36100979483300e+004,7.97916655268693e+003
7.94328234724275e+003	1.38061433701481e+004,7.89925582994892e+003
8.12830516164092e+003	1.39970406154642e+004,7.81572331663694e+003
8.31763771102664e+003	1.41827736188327e+004,7.72886347725414e+003
8.51138038202369e+003	1.43633408423493e+004,7.63896167185985e+003
8.70963589956073e+003	1.45387541856210e+004,7.54629369216413e+003
8.91250938133738e+003	1.47090379168537e+004,7.45112539095481e+003
9.12010839355902e+003	1.48742276307955e+004,7.35371239822414e+003
9.33254300796983e+003	1.50343692383701e+004,7.25429991729813e+003
