Freq.	V(vout)/(V(v1)-V(v2))
1.00000000000000e+003	(4.22946491271303e+001dB,-1.79999704963457e+002°)
1.02329299228075e+003	(4.22946491289227e+001dB,-1.79999698091184e+002°)
1.04712854805090e+003	(4.22946491310855e+001dB,-1.79999691058837e+002°)
1.07151930523761e+003	(4.22946491333303e+001dB,-1.79999683862686e+002°)
1.09647819614319e+003	(4.22946491352769e+001dB,-1.79999676498916e+002°)
1.12201845430196e+003	(4.22946491377039e+001dB,-1.79999668963623e+002°)
1.14815362149688e+003	(4.22946491400298e+001dB,-1.79999661252810e+002°)
1.17489755493953e+003	(4.22946491426533e+001dB,-1.79999653362392e+002°)
1.20226443461741e+003	(4.22946491453810e+001dB,-1.79999645288183e+002°)
1.23026877081238e+003	(4.22946491481210e+001dB,-1.79999637025903e+002°)
1.25892541179417e+003	(4.22946491511713e+001dB,-1.79999628571172e+002°)
1.28824955169313e+003	(4.22946491540493e+001dB,-1.79999619919505e+002°)
1.31825673855641e+003	(4.22946491571542e+001dB,-1.79999611066317e+002°)
1.34896288259165e+003	(4.22946491606835e+001dB,-1.79999602006914e+002°)
1.38038426460288e+003	(4.22946491640550e+001dB,-1.79999592736493e+002°)
1.41253754462275e+003	(4.22946491679658e+001dB,-1.79999583250137e+002°)
1.44543977074593e+003	(4.22946491716373e+001dB,-1.79999573542817e+002°)
1.47910838816821e+003	(4.22946491752745e+001dB,-1.79999563609387e+002°)
1.51356124843621e+003	(4.22946491799532e+001dB,-1.79999553444581e+002°)
1.54881661891248e+003	(4.22946491841271e+001dB,-1.79999543043008e+002°)
1.58489319246111e+003	(4.22946491890659e+001dB,-1.79999532399154e+002°)
1.62181009735893e+003	(4.22946491939034e+001dB,-1.79999521507377e+002°)
1.65958690743756e+003	(4.22946491990396e+001dB,-1.79999510361900e+002°)
1.69824365246174e+003	(4.22946492040967e+001dB,-1.79999498956815e+002°)
1.73780082874937e+003	(4.22946492097588e+001dB,-1.79999487286076e+002°)
1.77827941003892e+003	(4.22946492154629e+001dB,-1.79999475343494e+002°)
1.81970085860998e+003	(4.22946492216937e+001dB,-1.79999463122738e+002°)
1.86208713666287e+003	(4.22946492281792e+001dB,-1.79999450617328e+002°)
1.90546071796325e+003	(4.22946492347329e+001dB,-1.79999437820635e+002°)
1.94984459975804e+003	(4.22946492417576e+001dB,-1.79999424725874e+002°)
1.99526231496888e+003	(4.22946492491706e+001dB,-1.79999411326103e+002°)
2.04173794466953e+003	(4.22946492567909e+001dB,-1.79999397614216e+002°)
2.08929613085404e+003	(4.22946492647300e+001dB,-1.79999383582945e+002°)
2.13796208950223e+003	(4.22946492730967e+001dB,-1.79999369224850e+002°)
2.18776162394955e+003	(4.22946492821048e+001dB,-1.79999354532321e+002°)
2.23872113856834e+003	(4.22946492914768e+001dB,-1.79999339497566e+002°)
2.29086765276777e+003	(4.22946493009407e+001dB,-1.79999324112615e+002°)
2.34422881531992e+003	(4.22946493109994e+001dB,-1.79999308369311e+002°)
2.39883291901949e+003	(4.22946493218640e+001dB,-1.79999292259310e+002°)
2.45470891568503e+003	(4.22946493329772e+001dB,-1.79999275774067e+002°)
2.51188643150958e+003	(4.22946493444497e+001dB,-1.79999258904847e+002°)
2.57039578276886e+003	(4.22946493564977e+001dB,-1.79999241642702e+002°)
2.63026799189538e+003	(4.22946493693452e+001dB,-1.79999223978484e+002°)
2.69153480392691e+003	(4.22946493827199e+001dB,-1.79999205902828e+002°)
2.75422870333816e+003	(4.22946493968398e+001dB,-1.79999187406151e+002°)
2.81838293126445e+003	(4.22946494111484e+001dB,-1.79999168478644e+002°)
2.88403150312660e+003	(4.22946494266475e+001dB,-1.79999149110277e+002°)
2.95120922666638e+003	(4.22946494429755e+001dB,-1.79999129290782e+002°)
3.01995172040201e+003	(4.22946494594825e+001dB,-1.79999109009649e+002°)
3.09029543251359e+003	(4.22946494769760e+001dB,-1.79999088256131e+002°)
3.16227766016838e+003	(4.22946494954895e+001dB,-1.79999067019222e+002°)
3.23593656929628e+003	(4.22946495148613e+001dB,-1.79999045287667e+002°)
3.31131121482591e+003	(4.22946495350312e+001dB,-1.79999023049944e+002°)
3.38844156139202e+003	(4.22946495563287e+001dB,-1.79999000294265e+002°)
3.46736850452531e+003	(4.22946495783089e+001dB,-1.79998977008567e+002°)
3.54813389233575e+003	(4.22946496014980e+001dB,-1.79998953180510e+002°)
3.63078054770101e+003	(4.22946496257427e+001dB,-1.79998928797458e+002°)
3.71535229097172e+003	(4.22946496509950e+001dB,-1.79998903846487e+002°)
3.80189396320561e+003	(4.22946496778803e+001dB,-1.79998878314375e+002°)
3.89045144994280e+003	(4.22946497056722e+001dB,-1.79998852187582e+002°)
3.98107170553497e+003	(4.22946497352040e+001dB,-1.79998825452264e+002°)
4.07380277804112e+003	(4.22946497657492e+001dB,-1.79998798094248e+002°)
4.16869383470335e+003	(4.22946497973669e+001dB,-1.79998770099033e+002°)
4.26579518801592e+003	(4.22946498309898e+001dB,-1.79998741451782e+002°)
4.36515832240165e+003	(4.22946498658999e+001dB,-1.79998712137307e+002°)
4.46683592150962e+003	(4.22946499030430e+001dB,-1.79998682140074e+002°)
4.57088189614874e+003	(4.22946499416102e+001dB,-1.79998651444186e+002°)
4.67735141287197e+003	(4.22946499818689e+001dB,-1.79998620033369e+002°)
4.78630092322637e+003	(4.22946500240858e+001dB,-1.79998587890977e+002°)
4.89778819368445e+003	(4.22946500682406e+001dB,-1.79998554999976e+002°)
5.01187233627271e+003	(4.22946501144260e+001dB,-1.79998521342931e+002°)
5.12861383991364e+003	(4.22946501628121e+001dB,-1.79998486902013e+002°)
5.24807460249772e+003	(4.22946502135943e+001dB,-1.79998451658960e+002°)
5.37031796370252e+003	(4.22946502667680e+001dB,-1.79998415595105e+002°)
5.49540873857624e+003	(4.22946503224366e+001dB,-1.79998378691329e+002°)
5.62341325190348e+003	(4.22946503806938e+001dB,-1.79998340928081e+002°)
5.75439937337156e+003	(4.22946504417540e+001dB,-1.79998302285348e+002°)
5.88843655355588e+003	(4.22946505056320e+001dB,-1.79998262742655e+002°)
6.02559586074357e+003	(4.22946505726362e+001dB,-1.79998222279047e+002°)
6.16595001861481e+003	(4.22946506426031e+001dB,-1.79998180873086e+002°)
6.30957344480192e+003	(4.22946507159561e+001dB,-1.79998138502839e+002°)
6.45654229034654e+003	(4.22946507927367e+001dB,-1.79998095145847e+002°)
6.60693448007595e+003	(4.22946508729819e+001dB,-1.79998050779143e+002°)
6.76082975391980e+003	(4.22946509577211e+001dB,-1.79998005379231e+002°)
6.91830970918935e+003	(4.22946510455623e+001dB,-1.79997958922045e+002°)
7.07945784384136e+003	(4.22946511379226e+001dB,-1.79997911382987e+002°)
7.24435960074989e+003	(4.22946512346916e+001dB,-1.79997862736869e+002°)
7.41310241300916e+003	(4.22946513359437e+001dB,-1.79997812957930e+002°)
7.58577575029182e+003	(4.22946514419728e+001dB,-1.79997762019792e+002°)
7.76247116628690e+003	(4.22946515530662e+001dB,-1.79997709895484e+002°)
7.94328234724280e+003	(4.22946516692402e+001dB,-1.79997656557404e+002°)
8.12830516164097e+003	(4.22946517909059e+001dB,-1.79997601977293e+002°)
8.31763771102669e+003	(4.22946519184820e+001dB,-1.79997546126258e+002°)
8.51138038202374e+003	(4.22946520517218e+001dB,-1.79997488974719e+002°)
8.70963589956079e+003	(4.22946521913634e+001dB,-1.79997430492416e+002°)
8.91250938133744e+003	(4.22946523379490e+001dB,-1.79997370648389e+002°)
9.12010839355908e+003	(4.22946524910816e+001dB,-1.79997309410944e+002°)
9.33254300796989e+003	(4.22946526517169e+001dB,-1.79997246747681e+002°)
9.54992586021434e+003	(4.22946528195747e+001dB,-1.79997182625409e+002°)
9.77237220955809e+003	(4.22946529957497e+001dB,-1.79997117010198e+002°)
9.99999999999998e+003	(4.22946531796894e+001dB,-1.79997049867319e+002°)
1.02329299228075e+004	(4.22946533729046e+001dB,-1.79996981161238e+002°)
1.04712854805090e+004	(4.22946535747826e+001dB,-1.79996910855600e+002°)
1.07151930523760e+004	(4.22946537863810e+001dB,-1.79996838913198e+002°)
1.09647819614318e+004	(4.22946540077031e+001dB,-1.79996765295979e+002°)
1.12201845430196e+004	(4.22946542397444e+001dB,-1.79996689964987e+002°)
1.14815362149688e+004	(4.22946544826446e+001dB,-1.79996612880380e+002°)
1.17489755493953e+004	(4.22946547368568e+001dB,-1.79996534001388e+002°)
1.20226443461741e+004	(4.22946550030507e+001dB,-1.79996453286288e+002°)
1.23026877081238e+004	(4.22946552821085e+001dB,-1.79996370692418e+002°)
1.25892541179416e+004	(4.22946555739648e+001dB,-1.79996286176093e+002°)
1.28824955169313e+004	(4.22946558797497e+001dB,-1.79996199692647e+002°)
1.31825673855640e+004	(4.22946561997352e+001dB,-1.79996111196347e+002°)
1.34896288259165e+004	(4.22946565351065e+001dB,-1.79996020640447e+002°)
1.38038426460288e+004	(4.22946568860953e+001dB,-1.79995927977078e+002°)
1.41253754462275e+004	(4.22946572534539e+001dB,-1.79995833157292e+002°)
1.44543977074592e+004	(4.22946576386428e+001dB,-1.79995736131014e+002°)
1.47910838816820e+004	(4.22946580414038e+001dB,-1.79995636846966e+002°)
1.51356124843620e+004	(4.22946584636563e+001dB,-1.79995535252763e+002°)
1.54881661891248e+004	(4.22946589054071e+001dB,-1.79995431294742e+002°)
1.58489319246111e+004	(4.22946593679649e+001dB,-1.79995324918037e+002°)
1.62181009735893e+004	(4.22946598526734e+001dB,-1.79995216066526e+002°)
1.65958690743756e+004	(4.22946603597596e+001dB,-1.79995104682746e+002°)
1.69824365246174e+004	(4.22946608910364e+001dB,-1.79994990707963e+002°)
1.73780082874937e+004	(4.22946614470082e+001dB,-1.79994874082066e+002°)
1.77827941003892e+004	(4.22946620294868e+001dB,-1.79994754743585e+002°)
1.81970085860998e+004	(4.22946626395557e+001dB,-1.79994632629605e+002°)
1.86208713666286e+004	(4.22946632780579e+001dB,-1.79994507675777e+002°)
1.90546071796324e+004	(4.22946639468610e+001dB,-1.79994379816288e+002°)
1.94984459975804e+004	(4.22946646467225e+001dB,-1.79994248983787e+002°)
1.99526231496887e+004	(4.22946653797223e+001dB,-1.79994115109413e+002°)
2.04173794466952e+004	(4.22946661476106e+001dB,-1.79993978122725e+002°)
2.08929613085403e+004	(4.22946669516221e+001dB,-1.79993837951629e+002°)
2.13796208950222e+004	(4.22946677932514e+001dB,-1.79993694522429e+002°)
2.18776162394954e+004	(4.22946686744512e+001dB,-1.79993547759721e+002°)
2.23872113856833e+004	(4.22946695972466e+001dB,-1.79993397586390e+002°)
2.29086765276777e+004	(4.22946705634549e+001dB,-1.79993243923539e+002°)
2.34422881531991e+004	(4.22946715752525e+001dB,-1.79993086690516e+002°)
2.39883291901948e+004	(4.22946726349160e+001dB,-1.79992925804809e+002°)
2.45470891568502e+004	(4.22946737444082e+001dB,-1.79992761182027e+002°)
2.51188643150957e+004	(4.22946749058905e+001dB,-1.79992592735857e+002°)
2.57039578276885e+004	(4.22946761218118e+001dB,-1.79992420378038e+002°)
2.63026799189537e+004	(4.22946773954983e+001dB,-1.79992244018331e+002°)
2.69153480392691e+004	(4.22946787290243e+001dB,-1.79992063564423e+002°)
2.75422870333816e+004	(4.22946801251565e+001dB,-1.79991878921940e+002°)
2.81838293126444e+004	(4.22946815869723e+001dB,-1.79991689994364e+002°)
2.88403150312660e+004	(4.22946831177704e+001dB,-1.79991496683005e+002°)
2.95120922666637e+004	(4.22946847207793e+001dB,-1.79991298886969e+002°)
3.01995172040200e+004	(4.22946863988756e+001dB,-1.79991096503083e+002°)
3.09029543251358e+004	(4.22946881558539e+001dB,-1.79990889425851e+002°)
3.16227766016837e+004	(4.22946899960404e+001dB,-1.79990677547466e+002°)
3.23593656929627e+004	(4.22946919227536e+001dB,-1.79990460757685e+002°)
3.31131121482590e+004	(4.22946939396591e+001dB,-1.79990238943789e+002°)
3.38844156139201e+004	(4.22946960517614e+001dB,-1.79990011990572e+002°)
3.46736850452530e+004	(4.22946982631684e+001dB,-1.79989779780318e+002°)
3.54813389233574e+004	(4.22947005785611e+001dB,-1.79989542192629e+002°)
3.63078054770100e+004	(4.22947030030054e+001dB,-1.79989299104537e+002°)
3.71535229097171e+004	(4.22947055411848e+001dB,-1.79989050390269e+002°)
3.80189396320560e+004	(4.22947081991625e+001dB,-1.79988795921408e+002°)
3.89045144994279e+004	(4.22947109817566e+001dB,-1.79988535566644e+002°)
3.98107170553496e+004	(4.22947138954771e+001dB,-1.79988269191838e+002°)
4.07380277804111e+004	(4.22947169460071e+001dB,-1.79987996659922e+002°)
4.16869383470334e+004	(4.22947201398620e+001dB,-1.79987717830870e+002°)
4.26579518801591e+004	(4.22947234840128e+001dB,-1.79987432561671e+002°)
4.36515832240164e+004	(4.22947269852223e+001dB,-1.79987140706163e+002°)
4.46683592150961e+004	(4.22947306509300e+001dB,-1.79986842115121e+002°)
4.57088189614873e+004	(4.22947344890697e+001dB,-1.79986536636120e+002°)
4.67735141287196e+004	(4.22947385072130e+001dB,-1.79986224113488e+002°)
4.78630092322636e+004	(4.22947427143257e+001dB,-1.79985904388308e+002°)
4.89778819368444e+004	(4.22947471191396e+001dB,-1.79985577298288e+002°)
5.01187233627270e+004	(4.22947517302560e+001dB,-1.79985242677754e+002°)
5.12861383991362e+004	(4.22947565584068e+001dB,-1.79984900357590e+002°)
5.24807460249770e+004	(4.22947616128724e+001dB,-1.79984550165181e+002°)
5.37031796370250e+004	(4.22947669047965e+001dB,-1.79984191924412e+002°)
5.49540873857622e+004	(4.22947724446916e+001dB,-1.79983825455490e+002°)
5.62341325190346e+004	(4.22947782445887e+001dB,-1.79983450575085e+002°)
5.75439937337154e+004	(4.22947843163042e+001dB,-1.79983067096105e+002°)
5.88843655355586e+004	(4.22947906728347e+001dB,-1.79982674827834e+002°)
6.02559586074355e+004	(4.22947973276868e+001dB,-1.79982273575623e+002°)
6.16595001861479e+004	(4.22948042940290e+001dB,-1.79981863141142e+002°)
6.30957344480190e+004	(4.22948115869580e+001dB,-1.79981443322174e+002°)
6.45654229034652e+004	(4.22948192212792e+001dB,-1.79981013912555e+002°)
6.60693448007593e+004	(4.22948272132857e+001dB,-1.79980574702342e+002°)
6.76082975391979e+004	(4.22948355793336e+001dB,-1.79980125477466e+002°)
6.91830970918933e+004	(4.22948443371211e+001dB,-1.79979666020104e+002°)
7.07945784384134e+004	(4.22948535041778e+001dB,-1.79979196108212e+002°)
7.24435960074987e+004	(4.22948631002206e+001dB,-1.79978715515903e+002°)
7.41310241300914e+004	(4.22948731447553e+001dB,-1.79978224013107e+002°)
7.58577575029180e+004	(4.22948836587664e+001dB,-1.79977721365930e+002°)
7.76247116628688e+004	(4.22948946640684e+001dB,-1.79977207336235e+002°)
7.94328234724277e+004	(4.22949061829586e+001dB,-1.79976681681972e+002°)
8.12830516164095e+004	(4.22949182393184e+001dB,-1.79976144157078e+002°)
8.31763771102667e+004	(4.22949308586497e+001dB,-1.79975594511465e+002°)
8.51138038202372e+004	(4.22949440659920e+001dB,-1.79975032490977e+002°)
8.70963589956076e+004	(4.22949578889612e+001dB,-1.79974457837722e+002°)
8.91250938133741e+004	(4.22949723560577e+001dB,-1.79973870289781e+002°)
9.12010839355905e+004	(4.22949874964100e+001dB,-1.79973269581326e+002°)
9.33254300796986e+004	(4.22950033410912e+001dB,-1.79972655442993e+002°)
9.54992586021431e+004	(4.22950199229747e+001dB,-1.79972027601583e+002°)
9.77237220955805e+004	(4.22950372750338e+001dB,-1.79971385780208e+002°)
9.99999999999995e+004	(4.22950554332112e+001dB,-1.79970729698685e+002°)
1.02329299228075e+005	(4.22950744337604e+001dB,-1.79970059073259e+002°)
1.04712854805089e+005	(4.22950943155226e+001dB,-1.79969373617194e+002°)
1.07151930523760e+005	(4.22951151187439e+001dB,-1.79968673040293e+002°)
1.09647819614318e+005	(4.22951368850156e+001dB,-1.79967957049919e+002°)
1.12201845430196e+005	(4.22951596584209e+001dB,-1.79967225350263e+002°)
1.14815362149688e+005	(4.22951834844288e+001dB,-1.79966477643320e+002°)
1.17489755493952e+005	(4.22952084103482e+001dB,-1.79965713628679e+002°)
1.20226443461741e+005	(4.22952344868554e+001dB,-1.79964933004010e+002°)
1.23026877081237e+005	(4.22952617648549e+001dB,-1.79964135465052e+002°)
1.25892541179416e+005	(4.22952902990557e+001dB,-1.79963320706425e+002°)
1.28824955169313e+005	(4.22953201453198e+001dB,-1.79962488421541e+002°)
1.31825673855640e+005	(4.22953513627793e+001dB,-1.79961638303058e+002°)
1.34896288259165e+005	(4.22953840124612e+001dB,-1.79960770043575e+002°)
1.38038426460288e+005	(4.22954181581386e+001dB,-1.79959883335574e+002°)
1.41253754462275e+005	(4.22954538669028e+001dB,-1.79958977872348e+002°)
1.44543977074592e+005	(4.22954912074946e+001dB,-1.79958053348473e+002°)
1.47910838816820e+005	(4.22955302518436e+001dB,-1.79957109459983e+002°)
1.51356124843620e+005	(4.22955710754545e+001dB,-1.79956145905434e+002°)
1.54881661891247e+005	(4.22956137560286e+001dB,-1.79955162386476e+002°)
1.58489319246110e+005	(4.22956583751081e+001dB,-1.79954158608377e+002°)
1.62181009735892e+005	(4.22957050172905e+001dB,-1.79953134280905e+002°)
1.65958690743755e+005	(4.22957537704180e+001dB,-1.79952089119024e+002°)
1.69824365246173e+005	(4.22958047254693e+001dB,-1.79951022843992e+002°)
1.73780082874937e+005	(4.22958579772316e+001dB,-1.79949935184319e+002°)
1.77827941003891e+005	(4.22959136249746e+001dB,-1.79948825876250e+002°)
1.81970085860997e+005	(4.22959717700138e+001dB,-1.79947694665668e+002°)
1.86208713666286e+005	(4.22960325192882e+001dB,-1.79946541308684e+002°)
1.90546071796324e+005	(4.22960959825431e+001dB,-1.79945365572690e+002°)
1.94984459975803e+005	(4.22961622737605e+001dB,-1.79944167238308e+002°)
1.99526231496887e+005	(4.22962315109559e+001dB,-1.79942946100221e+002°)
2.04173794466952e+005	(4.22963038171261e+001dB,-1.79941701968816e+002°)
2.08929613085403e+005	(4.22963793184816e+001dB,-1.79940434671914e+002°)
2.13796208950222e+005	(4.22964581467370e+001dB,-1.79939144055887e+002°)
2.18776162394954e+005	(4.22965404370508e+001dB,-1.79937829988327e+002°)
2.23872113856833e+005	(4.22966263296215e+001dB,-1.79936492358579e+002°)
2.29086765276776e+005	(4.22967159689693e+001dB,-1.79935131080816e+002°)
2.34422881531991e+005	(4.22968095043585e+001dB,-1.79933746095816e+002°)
2.39883291901948e+005	(4.22969070892436e+001dB,-1.79932337372050e+002°)
2.45470891568501e+005	(4.22970088825546e+001dB,-1.79930904909889e+002°)
2.51188643150956e+005	(4.22971150472447e+001dB,-1.79929448742142e+002°)
2.57039578276885e+005	(4.22972257512531e+001dB,-1.79927968937276e+002°)
2.63026799189536e+005	(4.22973411666106e+001dB,-1.79926465601648e+002°)
2.69153480392690e+005	(4.22974614707633e+001dB,-1.79924938883154e+002°)
2.75422870333815e+005	(4.22975868443755e+001dB,-1.79923388972087e+002°)
2.81838293126444e+005	(4.22977174735853e+001dB,-1.79921816106013e+002°)
2.88403150312659e+005	(4.22978535485496e+001dB,-1.79920220571122e+002°)
2.95120922666637e+005	(4.22979952636115e+001dB,-1.79918602706305e+002°)
3.01995172040200e+005	(4.22981428169618e+001dB,-1.79916962905744e+002°)
3.09029543251357e+005	(4.22982964097851e+001dB,-1.79915301622298e+002°)
3.16227766016836e+005	(4.22984562484836e+001dB,-1.79913619370885e+002°)
3.23593656929626e+005	(4.22986225415352e+001dB,-1.79911916731071e+002°)
3.31131121482589e+005	(4.22987955003856e+001dB,-1.79910194351141e+002°)
3.38844156139200e+005	(4.22989753391430e+001dB,-1.79908452951872e+002°)
3.46736850452529e+005	(4.22991622747412e+001dB,-1.79906693328999e+002°)
3.54813389233573e+005	(4.22993565246965e+001dB,-1.79904916357140e+002°)
3.63078054770099e+005	(4.22995583090241e+001dB,-1.79903122992887e+002°)
3.71535229097170e+005	(4.22997678472599e+001dB,-1.79901314278317e+002°)
3.80189396320558e+005	(4.22999853599785e+001dB,-1.79899491344744e+002°)
3.89045144994278e+005	(4.23002110669849e+001dB,-1.79897655414932e+002°)
3.98107170553494e+005	(4.23004451866119e+001dB,-1.79895807807017e+002°)
4.07380277804110e+005	(4.23006879353682e+001dB,-1.79893949936738e+002°)
4.16869383470332e+005	(4.23009395271316e+001dB,-1.79892083320861e+002°)
4.26579518801589e+005	(4.23012001717257e+001dB,-1.79890209578520e+002°)
4.36515832240163e+005	(4.23014700753873e+001dB,-1.79888330435499e+002°)
4.46683592150960e+005	(4.23017494367952e+001dB,-1.79886447723102e+002°)
4.57088189614872e+005	(4.23020384503658e+001dB,-1.79884563383208e+002°)
4.67735141287195e+005	(4.23023373009203e+001dB,-1.79882679465906e+002°)
4.78630092322635e+005	(4.23026461661044e+001dB,-1.79880798133722e+002°)
4.89778819368442e+005	(4.23029652118515e+001dB,-1.79878921658990e+002°)
5.01187233627268e+005	(4.23032945940292e+001dB,-1.79877052425089e+002°)
5.12861383991361e+005	(4.23036344546093e+001dB,-1.79875192925280e+002°)
5.24807460249768e+005	(4.23039849234368e+001dB,-1.79873345760498e+002°)
5.37031796370248e+005	(4.23043461132818e+001dB,-1.79871513639402e+002°)
5.49540873857620e+005	(4.23047181219470e+001dB,-1.79869699372667e+002°)
5.62341325190345e+005	(4.23051010273785e+001dB,-1.79867905870382e+002°)
5.75439937337152e+005	(4.23054948897724e+001dB,-1.79866136139390e+002°)
