Freq.	V(input)/I(C1)
1.00000000000000e+003	(6.90722092070650e+001dB,-8.99999176918373e+001°)
1.02329299228075e+003	(6.88721888052604e+001dB,-8.99999157743713e+001°)
1.04712854805090e+003	(6.86721674418971e+001dB,-8.99999138122229e+001°)
1.07151930523761e+003	(6.84721450716531e+001dB,-8.99999118043502e+001°)
1.09647819614319e+003	(6.82721216470702e+001dB,-8.99999097496865e+001°)
1.12201845430196e+003	(6.80720971184530e+001dB,-8.99999076471404e+001°)
1.14815362149688e+003	(6.78720714337634e+001dB,-8.99999054955950e+001°)
1.17489755493953e+003	(6.76720445385103e+001dB,-8.99999032939072e+001°)
1.20226443461741e+003	(6.74720163756337e+001dB,-8.99999010409070e+001°)
1.23026877081238e+003	(6.72719868853837e+001dB,-8.99998987353972e+001°)
1.25892541179417e+003	(6.70719560051937e+001dB,-8.99998963761525e+001°)
1.28824955169313e+003	(6.68719236695474e+001dB,-8.99998939619190e+001°)
1.31825673855641e+003	(6.66718898098401e+001dB,-8.99998914914133e+001°)
1.34896288259165e+003	(6.64718543542324e+001dB,-8.99998889633220e+001°)
1.38038426460288e+003	(6.62718172274983e+001dB,-8.99998863763008e+001°)
1.41253754462275e+003	(6.60717783508649e+001dB,-8.99998837289740e+001°)
1.44543977074593e+003	(6.58717376418457e+001dB,-8.99998810199337e+001°)
1.47910838816821e+003	(6.56716950140650e+001dB,-8.99998782477387e+001°)
1.51356124843621e+003	(6.54716503770746e+001dB,-8.99998754109144e+001°)
1.54881661891248e+003	(6.52716036361617e+001dB,-8.99998725079510e+001°)
1.58489319246111e+003	(6.50715546921479e+001dB,-8.99998695373039e+001°)
1.62181009735893e+003	(6.48715034411780e+001dB,-8.99998664973916e+001°)
1.65958690743756e+003	(6.46714497745002e+001dB,-8.99998633865960e+001°)
1.69824365246174e+003	(6.44713935782342e+001dB,-8.99998602032604e+001°)
1.73780082874937e+003	(6.42713347331301e+001dB,-8.99998569456895e+001°)
1.77827941003892e+003	(6.40712731143142e+001dB,-8.99998536121481e+001°)
1.81970085860998e+003	(6.38712085910244e+001dB,-8.99998502008598e+001°)
1.86208713666287e+003	(6.36711410263318e+001dB,-8.99998467100068e+001°)
1.90546071796325e+003	(6.34710702768498e+001dB,-8.99998431377282e+001°)
1.94984459975804e+003	(6.32709961924297e+001dB,-8.99998394821191e+001°)
1.99526231496888e+003	(6.30709186158410e+001dB,-8.99998357412300e+001°)
2.04173794466953e+003	(6.28708373824376e+001dB,-8.99998319130651e+001°)
2.08929613085404e+003	(6.26707523198072e+001dB,-8.99998279955814e+001°)
2.13796208950223e+003	(6.24706632474056e+001dB,-8.99998239866879e+001°)
2.18776162394955e+003	(6.22705699761717e+001dB,-8.99998198842439e+001°)
2.23872113856834e+003	(6.20704723081262e+001dB,-8.99998156860580e+001°)
2.29086765276777e+003	(6.18703700359502e+001dB,-8.99998113898869e+001°)
2.34422881531992e+003	(6.16702629425440e+001dB,-8.99998069934343e+001°)
2.39883291901949e+003	(6.14701508005655e+001dB,-8.99998024943491e+001°)
2.45470891568503e+003	(6.12700333719462e+001dB,-8.99997978902246e+001°)
2.51188643150958e+003	(6.10699104073845e+001dB,-8.99997931785968e+001°)
2.57039578276886e+003	(6.08697816458154e+001dB,-8.99997883569430e+001°)
2.63026799189538e+003	(6.06696468138540e+001dB,-8.99997834226805e+001°)
2.69153480392691e+003	(6.04695056252142e+001dB,-8.99997783731649e+001°)
2.75422870333816e+003	(6.02693577800984e+001dB,-8.99997732056888e+001°)
2.81838293126445e+003	(6.00692029645590e+001dB,-8.99997679174802e+001°)
2.88403150312660e+003	(5.98690408498297e+001dB,-8.99997625057004e+001°)
2.95120922666638e+003	(5.96688710916248e+001dB,-8.99997569674430e+001°)
3.01995172040201e+003	(5.94686933294052e+001dB,-8.99997512997319e+001°)
3.09029543251359e+003	(5.92685071856100e+001dB,-8.99997454995194e+001°)
3.16227766016838e+003	(5.90683122648513e+001dB,-8.99997395636845e+001°)
3.23593656929628e+003	(5.88681081530707e+001dB,-8.99997334890311e+001°)
3.31131121482591e+003	(5.86678944166560e+001dB,-8.99997272722859e+001°)
3.38844156139202e+003	(5.84676706015158e+001dB,-8.99997209100966e+001°)
3.46736850452531e+003	(5.82674362321100e+001dB,-8.99997143990297e+001°)
3.54813389233575e+003	(5.80671908104345e+001dB,-8.99997077355684e+001°)
3.63078054770101e+003	(5.78669338149575e+001dB,-8.99997009161106e+001°)
3.71535229097172e+003	(5.76666646995046e+001dB,-8.99996939369666e+001°)
3.80189396320561e+003	(5.74663828920920e+001dB,-8.99996867943564e+001°)
3.89045144994280e+003	(5.72660877937030e+001dB,-8.99996794844080e+001°)
3.98107170553497e+003	(5.70657787770067e+001dB,-8.99996720031543e+001°)
4.07380277804112e+003	(5.68654551850157e+001dB,-8.99996643465311e+001°)
4.16869383470335e+003	(5.66651163296793e+001dB,-8.99996565103740e+001°)
4.26579518801592e+003	(5.64647614904103e+001dB,-8.99996484904159e+001°)
4.36515832240165e+003	(5.62643899125403e+001dB,-8.99996402822843e+001°)
4.46683592150962e+003	(5.60640008057028e+001dB,-8.99996318814984e+001°)
4.57088189614874e+003	(5.58635933421368e+001dB,-8.99996232834657e+001°)
4.67735141287197e+003	(5.56631666549117e+001dB,-8.99996144834794e+001°)
4.78630092322637e+003	(5.54627198360649e+001dB,-8.99996054767151e+001°)
4.89778819368445e+003	(5.52622519346516e+001dB,-8.99995962582271e+001°)
5.01187233627271e+003	(5.50617619547008e+001dB,-8.99995868229455e+001°)
5.12861383991364e+003	(5.48612488530725e+001dB,-8.99995771656722e+001°)
5.24807460249772e+003	(5.46607115372128e+001dB,-8.99995672810774e+001°)
5.37031796370252e+003	(5.44601488628004e+001dB,-8.99995571636957e+001°)
5.49540873857624e+003	(5.42595596312803e+001dB,-8.99995468079222e+001°)
5.62341325190348e+003	(5.40589425872786e+001dB,-8.99995362080084e+001°)
5.75439937337156e+003	(5.38582964158920e+001dB,-8.99995253580575e+001°)
5.88843655355588e+003	(5.36576197398473e+001dB,-8.99995142520207e+001°)
6.02559586074357e+003	(5.34569111165231e+001dB,-8.99995028836917e+001°)
6.16595001861481e+003	(5.32561690348273e+001dB,-8.99994912467026e+001°)
6.30957344480192e+003	(5.30553919119239e+001dB,-8.99994793345182e+001°)
6.45654229034654e+003	(5.28545780898003e+001dB,-8.99994671404316e+001°)
6.60693448007595e+003	(5.26537258316679e+001dB,-8.99994546575578e+001°)
6.76082975391980e+003	(5.24528333181886e+001dB,-8.99994418788287e+001°)
6.91830970918935e+003	(5.22518986435159e+001dB,-8.99994287969869e+001°)
7.07945784384136e+003	(5.20509198111441e+001dB,-8.99994154045797e+001°)
7.24435960074989e+003	(5.18498947295542e+001dB,-8.99994016939521e+001°)
7.41310241300916e+003	(5.16488212076468e+001dB,-8.99993876572407e+001°)
7.58577575029182e+003	(5.14476969499504e+001dB,-8.99993732863664e+001°)
7.76247116628690e+003	(5.12465195515956e+001dB,-8.99993585730267e+001°)
7.94328234724280e+003	(5.10452864930409e+001dB,-8.99993435086884e+001°)
8.12830516164097e+003	(5.08439951345387e+001dB,-8.99993280845792e+001°)
8.31763771102669e+003	(5.06426427103281e+001dB,-8.99993122916792e+001°)
8.51138038202374e+003	(5.04412263225397e+001dB,-8.99992961207125e+001°)
8.70963589956079e+003	(5.02397429347985e+001dB,-8.99992795621367e+001°)
8.91250938133744e+003	(5.00381893655082e+001dB,-8.99992626061346e+001°)
9.12010839355908e+003	(4.98365622808003e+001dB,-8.99992452426023e+001°)
9.33254300796989e+003	(4.96348581871315e+001dB,-8.99992274611397e+001°)
9.54992586021434e+003	(4.94330734235094e+001dB,-8.99992092510381e+001°)
9.77237220955809e+003	(4.92312041533279e+001dB,-8.99991906012688e+001°)
9.99999999999998e+003	(4.90292463557903e+001dB,-8.99991715004700e+001°)
1.02329299228075e+004	(4.88271958169002e+001dB,-8.99991519369339e+001°)
1.04712854805090e+004	(4.86250481199937e+001dB,-8.99991318985921e+001°)
1.07151930523760e+004	(4.84227986357913e+001dB,-8.99991113730010e+001°)
1.09647819614318e+004	(4.82204425119416e+001dB,-8.99990903473262e+001°)
1.12201845430196e+004	(4.80179746620286e+001dB,-8.99990688083258e+001°)
1.14815362149688e+004	(4.78153897540145e+001dB,-8.99990467423329e+001°)
1.17489755493953e+004	(4.76126821980861e+001dB,-8.99990241352368e+001°)
1.20226443461741e+004	(4.74098461338709e+001dB,-8.99990009724635e+001°)
1.23026877081238e+004	(4.72068754169877e+001dB,-8.99989772389552e+001°)
1.25892541179416e+004	(4.70037636048957e+001dB,-8.99989529191477e+001°)
1.28824955169313e+004	(4.68005039419995e+001dB,-8.99989279969470e+001°)
1.31825673855640e+004	(4.65970893439689e+001dB,-8.99989024557050e+001°)
1.34896288259165e+004	(4.63935123812287e+001dB,-8.99988762781922e+001°)
1.38038426460288e+004	(4.61897652615679e+001dB,-8.99988494465706e+001°)
1.41253754462275e+004	(4.59858398118194e+001dB,-8.99988219423628e+001°)
1.44543977074592e+004	(4.57817274585526e+001dB,-8.99987937464210e+001°)
1.47910838816820e+004	(4.55774192077222e+001dB,-8.99987648388927e+001°)
1.51356124843620e+004	(4.53729056232078e+001dB,-8.99987351991848e+001°)
1.54881661891248e+004	(4.51681768041800e+001dB,-8.99987048059248e+001°)
1.58489319246111e+004	(4.49632223612184e+001dB,-8.99986736369202e+001°)
1.62181009735893e+004	(4.47580313911050e+001dB,-8.99986416691140e+001°)
1.65958690743756e+004	(4.45525924502111e+001dB,-8.99986088785384e+001°)
1.69824365246174e+004	(4.43468935263880e+001dB,-8.99985752402641e+001°)
1.73780082874937e+004	(4.41409220092657e+001dB,-8.99985407283473e+001°)
1.77827941003892e+004	(4.39346646588585e+001dB,-8.99985053157714e+001°)
1.81970085860998e+004	(4.37281075723656e+001dB,-8.99984689743861e+001°)
1.86208713666286e+004	(4.35212361490490e+001dB,-8.99984316748410e+001°)
1.90546071796324e+004	(4.33140350530597e+001dB,-8.99983933865150e+001°)
1.94984459975804e+004	(4.31064881740754e+001dB,-8.99983540774398e+001°)
1.99526231496887e+004	(4.28985785855994e+001dB,-8.99983137142185e+001°)
2.04173794466952e+004	(4.26902885007596e+001dB,-8.99982722619377e+001°)
2.08929613085403e+004	(4.24815992254339e+001dB,-8.99982296840722e+001°)
2.13796208950222e+004	(4.22724911085129e+001dB,-8.99981859423839e+001°)
2.18776162394954e+004	(4.20629434890947e+001dB,-8.99981409968114e+001°)
2.23872113856833e+004	(4.18529346403897e+001dB,-8.99980948053515e+001°)
2.29086765276777e+004	(4.16424417100946e+001dB,-8.99980473239313e+001°)
2.34422881531991e+004	(4.14314406569726e+001dB,-8.99979985062698e+001°)
2.39883291901948e+004	(4.12199061833534e+001dB,-8.99979483037283e+001°)
2.45470891568502e+004	(4.10078116632422e+001dB,-8.99978966651490e+001°)
2.51188643150957e+004	(4.07951290656967e+001dB,-8.99978435366788e+001°)
2.57039578276885e+004	(4.05818288731010e+001dB,-8.99977888615797e+001°)
2.63026799189537e+004	(4.03678799939294e+001dB,-8.99977325800224e+001°)
2.69153480392691e+004	(4.01532496695537e+001dB,-8.99976746288619e+001°)
2.75422870333816e+004	(3.99379033746070e+001dB,-8.99976149413937e+001°)
2.81838293126444e+004	(3.97218047103652e+001dB,-8.99975534470886e+001°)
2.88403150312660e+004	(3.95049152905568e+001dB,-8.99974900713032e+001°)
2.95120922666637e+004	(3.92871946189501e+001dB,-8.99974247349650e+001°)
3.01995172040200e+004	(3.90685999580012e+001dB,-8.99973573542272e+001°)
3.09029543251358e+004	(3.88490861877690e+001dB,-8.99972878400927e+001°)
3.16227766016837e+004	(3.86286056542216e+001dB,-8.99972160980018e+001°)
3.23593656929627e+004	(3.84071080059627e+001dB,-8.99971420273802e+001°)
3.31131121482590e+004	(3.81845400182995e+001dB,-8.99970655211436e+001°)
3.38844156139201e+004	(3.79608454034549e+001dB,-8.99969864651531e+001°)
3.46736850452530e+004	(3.77359646055891e+001dB,-8.99969047376163e+001°)
3.54813389233574e+004	(3.75098345791439e+001dB,-8.99968202084272e+001°)
3.63078054770100e+004	(3.72823885488463e+001dB,-8.99967327384377e+001°)
3.71535229097171e+004	(3.70535557495119e+001dB,-8.99966421786537e+001°)
3.80189396320560e+004	(3.68232611435610e+001dB,-8.99965483693447e+001°)
3.89045144994279e+004	(3.65914251139039e+001dB,-8.99964511390569e+001°)
3.98107170553496e+004	(3.63579631295543e+001dB,-8.99963503035174e+001°)
4.07380277804111e+004	(3.61227853809957e+001dB,-8.99962456644164e+001°)
4.16869383470334e+004	(3.58857963819326e+001dB,-8.99961370080491e+001°)
4.26579518801591e+004	(3.56468945336129e+001dB,-8.99960241038012e+001°)
4.36515832240164e+004	(3.54059716473894e+001dB,-8.99959067024532e+001°)
4.46683592150961e+004	(3.51629124205898e+001dB,-8.99957845342818e+001°)
4.57088189614873e+004	(3.49175938600676e+001dB,-8.99956573069269e+001°)
4.67735141287196e+004	(3.46698846469965e+001dB,-8.99955247029906e+001°)
4.78630092322636e+004	(3.44196444355230e+001dB,-8.99953863773294e+001°)
4.89778819368444e+004	(3.41667230767836e+001dB,-8.99952419539917e+001°)
5.01187233627270e+004	(3.39109597584877e+001dB,-8.99950910227462e+001°)
5.12861383991362e+004	(3.36521820487292e+001dB,-8.99949331351362e+001°)
5.24807460249770e+004	(3.33902048308695e+001dB,-8.99947677999825e+001°)
5.37031796370250e+004	(3.31248291141719e+001dB,-8.99945944782442e+001°)
5.49540873857622e+004	(3.28558407022895e+001dB,-8.99944125771263e+001°)
5.62341325190346e+004	(3.25830086986197e+001dB,-8.99942214433047e+001°)
5.75439937337154e+004	(3.23060838238330e+001dB,-8.99940203551090e+001°)
5.88843655355586e+004	(3.20247965163989e+001dB,-8.99938085134725e+001°)
6.02559586074355e+004	(3.17388547815041e+001dB,-8.99935850314169e+001°)
6.16595001861479e+004	(3.14479417471359e+001dB,-8.99933489217867e+001°)
6.30957344480190e+004	(3.11517128779977e+001dB,-8.99930990828867e+001°)
6.45654229034652e+004	(3.08497927879408e+001dB,-8.99928342815890e+001°)
6.60693448007593e+004	(3.05417715792386e+001dB,-8.99925531333779e+001°)
6.76082975391979e+004	(3.02272006216381e+001dB,-8.99922540786628e+001°)
6.91830970918933e+004	(2.99055876648345e+001dB,-8.99919353545214e+001°)
7.07945784384134e+004	(2.95763911536840e+001dB,-8.99915949608096e+001°)
7.24435960074987e+004	(2.92390135845603e+001dB,-8.99912306192848e+001°)
7.41310241300914e+004	(2.88927937017092e+001dB,-8.99908397240031e+001°)
7.58577575029180e+004	(2.85369972814284e+001dB,-8.99904192807380e+001°)
7.76247116628688e+004	(2.81708061855360e+001dB,-8.99899658324773e+001°)
7.94328234724277e+004	(2.77933052784739e+001dB,-8.99894753671206e+001°)
8.12830516164095e+004	(2.74034666869407e+001dB,-8.99889432022091e+001°)
8.31763771102667e+004	(2.70001307263514e+001dB,-8.99883638397357e+001°)
8.51138038202372e+004	(2.65819826090733e+001dB,-8.99877307815648e+001°)
8.70963589956076e+004	(2.61475237624713e+001dB,-8.99870362924082e+001°)
8.91250938133741e+004	(2.56950361864018e+001dB,-8.99862710921091e+001°)
9.12010839355905e+004	(2.52225377186813e+001dB,-8.99854239513530e+001°)
9.33254300796986e+004	(2.47277252744345e+001dB,-8.99844811534980e+001°)
9.54992586021431e+004	(2.42079019574638e+001dB,-8.99834257677831e+001°)
9.77237220955805e+004	(2.36598822106616e+001dB,-8.99822366520042e+001°)
9.99999999999995e+004	(2.30798665525474e+001dB,-8.99808870594133e+001°)
1.02329299228075e+005	(2.24632733894206e+001dB,-8.99793426536281e+001°)
1.04712854805089e+005	(2.18045089440928e+001dB,-8.99775586157072e+001°)
1.07151930523760e+005	(2.10966457908425e+001dB,-8.99754753190583e+001°)
1.09647819614318e+005	(2.03309626397627e+001dB,-8.99730116706293e+001°)
1.12201845430196e+005	(1.94962666564296e+001dB,-8.99700545041514e+001°)
1.14815362149688e+005	(1.85778620137803e+001dB,-8.99664409951866e+001°)
1.17489755493952e+005	(1.75559169517107e+001dB,-8.99619280822788e+001°)
1.20226443461741e+005	(1.64027521750275e+001dB,-8.99561361192471e+001°)
1.23026877081237e+005	(1.50780635415455e+001dB,-8.99484372842925e+001°)
1.25892541179416e+005	(1.35198453718550e+001dB,-8.99377132177137e+001°)
1.28824955169313e+005	(1.16253301877475e+001dB,-8.99217597024269e+001°)
1.31825673855640e+005	(9.20494469686739e+000dB,-8.98955464902693e+001°)
1.34896288259165e+005	(5.84455879847019e+000dB,-8.98445520615171e+001°)
1.38038426460288e+005	(2.99703687372759e-001dB,-8.97023913826786e+001°)
1.41253754462275e+005	(-1.90941243078273e+001dB,-8.71913078356500e+001°)
1.44543977074592e+005	(-1.79450853394627e+000dB,8.96122679319928e+001°)
1.47910838816820e+005	(4.80080680492380e+000dB,8.98162907405725e+001°)
1.51356124843620e+005	(8.50911900221797e+000dB,8.98785839132642e+001°)
1.54881661891247e+005	(1.11031082091659e+001dB,8.99087282701544e+001°)
1.58489319246110e+005	(1.31016268299799e+001dB,8.99264854596490e+001°)
1.62181009735892e+005	(1.47290754043124e+001dB,8.99381738939738e+001°)
1.65958690743755e+005	(1.61031327392457e+001dB,8.99464384572342e+001°)
1.69824365246173e+005	(1.72932563986518e+001dB,8.99525814058743e+001°)
1.73780082874937e+005	(1.83438892853270e+001dB,8.99573183460237e+001°)
1.77827941003891e+005	(1.92851935619189e+001dB,8.99610751175693e+001°)
1.81970085860997e+005	(2.01385808832711e+001dB,8.99641209560186e+001°)
1.86208713666286e+005	(2.09198003364243e+001dB,8.99666344010347e+001°)
1.90546071796324e+005	(2.16407739782766e+001dB,8.99687385022186e+001°)
1.94984459975803e+005	(2.23107440343032e+001dB,8.99705208061680e+001°)
1.99526231496887e+005	(2.29370200206076e+001dB,8.99720452841286e+001°)
2.04173794466952e+005	(2.35254823565512e+001dB,8.99733597528497e+001°)
2.08929613085403e+005	(2.40809319081828e+001dB,8.99745006575623e+001°)
2.13796208950222e+005	(2.46073387774263e+001dB,8.99754962497920e+001°)
2.18776162394954e+005	(2.51080232964397e+001dB,8.99763687551284e+001°)
2.23872113856833e+005	(2.55857902554268e+001dB,8.99771358865916e+001°)
2.29086765276776e+005	(2.60430301552726e+001dB,8.99778119229683e+001°)
2.34422881531991e+005	(2.64817967529679e+001dB,8.99784084912854e+001°)
2.39883291901948e+005	(2.69038672643219e+001dB,8.99789351439256e+001°)
2.45470891568501e+005	(2.73107896801551e+001dB,8.99793997905698e+001°)
2.51188643150956e+005	(2.77039203710061e+001dB,8.99798090257973e+001°)
2.57039578276885e+005	(2.80844542786214e+001dB,8.99801683805535e+001°)
2.63026799189536e+005	(2.84534493819650e+001dB,8.99804825172963e+001°)
2.69153480392690e+005	(2.88118466935494e+001dB,8.99807553829483e+001°)
2.75422870333815e+005	(2.91604867318464e+001dB,8.99809903298676e+001°)
2.81838293126444e+005	(2.95001231900009e+001dB,8.99811902123117e+001°)
2.88403150312659e+005	(2.98314343549820e+001dB,8.99813574639351e+001°)
2.95120922666637e+005	(3.01550327075970e+001dB,8.99814941604680e+001°)
3.01995172040200e+005	(3.04714730406748e+001dB,8.99816020707121e+001°)
3.09029543251357e+005	(3.07812593619406e+001dB,8.99816826982493e+001°)
3.16227766016836e+005	(3.10848507938009e+001dB,8.99817373157067e+001°)
3.23593656929626e+005	(3.13826666402444e+001dB,8.99817669930113e+001°)
3.31131121482589e+005	(3.16750907582951e+001dB,8.99817726207515e+001°)
3.38844156139200e+005	(3.19624753456995e+001dB,8.99817549295282e+001°)
3.46736850452529e+005	(3.22451442361510e+001dB,8.99817145059934e+001°)
3.54813389233573e+005	(3.25233957771166e+001dB,8.99816518061332e+001°)
3.63078054770099e+005	(3.27975053523079e+001dB,8.99815671662395e+001°)
3.71535229097170e+005	(3.30677276003425e+001dB,8.99814608119307e+001°)
3.80189396320558e+005	(3.33342983726190e+001dB,8.99813328655089e+001°)
3.89045144994278e+005	(3.35974364664874e+001dB,8.99811833518899e+001°)
3.98107170553494e+005	(3.38573451640977e+001dB,8.99810122032949e+001°)
4.07380277804110e+005	(3.41142136026266e+001dB,8.99808192628592e+001°)
4.16869383470332e+005	(3.43682179976973e+001dB,8.99806042872834e+001°)
4.26579518801589e+005	(3.46195227385837e+001dB,8.99803669486292e+001°)
4.36515832240163e+005	(3.48682813711027e+001dB,8.99801068353414e+001°)
4.46683592150960e+005	(3.51146374818381e+001dB,8.99798234525625e+001°)
4.57088189614872e+005	(3.53587254954481e+001dB,8.99795162217930e+001°)
4.67735141287195e+005	(3.56006713952034e+001dB,8.99791844799363e+001°)
4.78630092322635e+005	(3.58405933755494e+001dB,8.99788274777608e+001°)
4.89778819368442e+005	(3.60786024343315e+001dB,8.99784443778020e+001°)
5.01187233627268e+005	(3.63148029113389e+001dB,8.99780342517178e+001°)
5.12861383991361e+005	(3.65492929789838e+001dB,8.99775960771070e+001°)
5.24807460249768e+005	(3.67821650902079e+001dB,8.99771287337950e+001°)
5.37031796370248e+005	(3.70135063880898e+001dB,8.99766309995807e+001°)
5.49540873857620e+005	(3.72433990810904e+001dB,8.99761015454422e+001°)
5.62341325190345e+005	(3.74719207874095e+001dB,8.99755389301846e+001°)
5.75439937337152e+005	(3.76991448515260e+001dB,8.99749415945177e+001°)
5.88843655355584e+005	(3.79251406356431e+001dB,8.99743078545427e+001°)
