Freq.	V(output)/V(input)
1.00000000000000e-008	(1.10235667122733e+002dB,1.79999882070674e+002°)
1.02329299228075e-008	(1.10235667122732e+002dB,1.79999879323747e+002°)
1.04712854805090e-008	(1.10235667122731e+002dB,1.79999876512836e+002°)
1.07151930523761e-008	(1.10235667122730e+002dB,1.79999873636451e+002°)
1.09647819614318e-008	(1.10235667122729e+002dB,1.79999870693065e+002°)
1.12201845430196e-008	(1.10235667122728e+002dB,1.79999867681120e+002°)
1.14815362149688e-008	(1.10235667122727e+002dB,1.79999864599017e+002°)
1.17489755493953e-008	(1.10235667122726e+002dB,1.79999861445123e+002°)
1.20226443461741e-008	(1.10235667122725e+002dB,1.79999858217766e+002°)
1.23026877081238e-008	(1.10235667122723e+002dB,1.79999854915233e+002°)
1.25892541179417e-008	(1.10235667122722e+002dB,1.79999851535775e+002°)
1.28824955169313e-008	(1.10235667122721e+002dB,1.79999848077599e+002°)
1.31825673855641e-008	(1.10235667122719e+002dB,1.79999844538871e+002°)
1.34896288259165e-008	(1.10235667122718e+002dB,1.79999840917717e+002°)
1.38038426460288e-008	(1.10235667122716e+002dB,1.79999837212214e+002°)
1.41253754462275e-008	(1.10235667122714e+002dB,1.79999833420400e+002°)
1.44543977074593e-008	(1.10235667122713e+002dB,1.79999829540262e+002°)
1.47910838816821e-008	(1.10235667122711e+002dB,1.79999825569745e+002°)
1.51356124843621e-008	(1.10235667122709e+002dB,1.79999821506742e+002°)
1.54881661891248e-008	(1.10235667122707e+002dB,1.79999817349100e+002°)
1.58489319246111e-008	(1.10235667122705e+002dB,1.79999813094614e+002°)
1.62181009735893e-008	(1.10235667122703e+002dB,1.79999808741028e+002°)
1.65958690743756e-008	(1.10235667122701e+002dB,1.79999804286035e+002°)
1.69824365246174e-008	(1.10235667122698e+002dB,1.79999799727271e+002°)
1.73780082874937e-008	(1.10235667122696e+002dB,1.79999795062320e+002°)
1.77827941003892e-008	(1.10235667122693e+002dB,1.79999790288708e+002°)
1.81970085860998e-008	(1.10235667122690e+002dB,1.79999785403904e+002°)
1.86208713666287e-008	(1.10235667122687e+002dB,1.79999780405319e+002°)
1.90546071796325e-008	(1.10235667122684e+002dB,1.79999775290302e+002°)
1.94984459975804e-008	(1.10235667122681e+002dB,1.79999770056141e+002°)
1.99526231496888e-008	(1.10235667122678e+002dB,1.79999764700060e+002°)
2.04173794466953e-008	(1.10235667122674e+002dB,1.79999759219220e+002°)
2.08929613085404e-008	(1.10235667122671e+002dB,1.79999753610716e+002°)
2.13796208950223e-008	(1.10235667122667e+002dB,1.79999747871572e+002°)
2.18776162394955e-008	(1.10235667122663e+002dB,1.79999741998746e+002°)
2.23872113856834e-008	(1.10235667122659e+002dB,1.79999735989125e+002°)
2.29086765276777e-008	(1.10235667122655e+002dB,1.79999729839522e+002°)
2.34422881531992e-008	(1.10235667122650e+002dB,1.79999723546676e+002°)
2.39883291901949e-008	(1.10235667122645e+002dB,1.79999717107251e+002°)
2.45470891568503e-008	(1.10235667122640e+002dB,1.79999710517832e+002°)
2.51188643150958e-008	(1.10235667122635e+002dB,1.79999703774926e+002°)
2.57039578276886e-008	(1.10235667122630e+002dB,1.79999696874958e+002°)
2.63026799189538e-008	(1.10235667122624e+002dB,1.79999689814269e+002°)
2.69153480392691e-008	(1.10235667122618e+002dB,1.79999682589115e+002°)
2.75422870333816e-008	(1.10235667122612e+002dB,1.79999675195666e+002°)
2.81838293126445e-008	(1.10235667122605e+002dB,1.79999667630001e+002°)
2.88403150312660e-008	(1.10235667122598e+002dB,1.79999659888109e+002°)
2.95120922666638e-008	(1.10235667122591e+002dB,1.79999651965885e+002°)
3.01995172040201e-008	(1.10235667122583e+002dB,1.79999643859129e+002°)
3.09029543251359e-008	(1.10235667122575e+002dB,1.79999635563543e+002°)
3.16227766016838e-008	(1.10235667122567e+002dB,1.79999627074727e+002°)
3.23593656929628e-008	(1.10235667122559e+002dB,1.79999618388182e+002°)
3.31131121482591e-008	(1.10235667122549e+002dB,1.79999609499301e+002°)
3.38844156139202e-008	(1.10235667122540e+002dB,1.79999600403371e+002°)
3.46736850452531e-008	(1.10235667122530e+002dB,1.79999591095570e+002°)
3.54813389233575e-008	(1.10235667122520e+002dB,1.79999581570962e+002°)
3.63078054770101e-008	(1.10235667122509e+002dB,1.79999571824497e+002°)
3.71535229097172e-008	(1.10235667122497e+002dB,1.79999561851009e+002°)
3.80189396320561e-008	(1.10235667122485e+002dB,1.79999551645208e+002°)
3.89045144994280e-008	(1.10235667122473e+002dB,1.79999541201683e+002°)
3.98107170553497e-008	(1.10235667122460e+002dB,1.79999530514897e+002°)
4.07380277804112e-008	(1.10235667122446e+002dB,1.79999519579184e+002°)
4.16869383470335e-008	(1.10235667122431e+002dB,1.79999508388746e+002°)
4.26579518801592e-008	(1.10235667122416e+002dB,1.79999496937649e+002°)
4.36515832240165e-008	(1.10235667122401e+002dB,1.79999485219822e+002°)
4.46683592150962e-008	(1.10235667122384e+002dB,1.79999473229051e+002°)
4.57088189614874e-008	(1.10235667122367e+002dB,1.79999460958979e+002°)
4.67735141287197e-008	(1.10235667122349e+002dB,1.79999448403101e+002°)
4.78630092322637e-008	(1.10235667122330e+002dB,1.79999435554758e+002°)
4.89778819368445e-008	(1.10235667122310e+002dB,1.79999422407140e+002°)
5.01187233627271e-008	(1.10235667122289e+002dB,1.79999408953274e+002°)
5.12861383991364e-008	(1.10235667122267e+002dB,1.79999395186027e+002°)
5.24807460249771e-008	(1.10235667122244e+002dB,1.79999381098100e+002°)
5.37031796370251e-008	(1.10235667122221e+002dB,1.79999366682023e+002°)
5.49540873857623e-008	(1.10235667122196e+002dB,1.79999351930152e+002°)
5.62341325190348e-008	(1.10235667122169e+002dB,1.79999336834666e+002°)
5.75439937337156e-008	(1.10235667122142e+002dB,1.79999321387561e+002°)
5.88843655355588e-008	(1.10235667122113e+002dB,1.79999305580647e+002°)
6.02559586074356e-008	(1.10235667122083e+002dB,1.79999289405542e+002°)
6.16595001861481e-008	(1.10235667122052e+002dB,1.79999272853671e+002°)
6.30957344480192e-008	(1.10235667122019e+002dB,1.79999255916257e+002°)
6.45654229034654e-008	(1.10235667121984e+002dB,1.79999238584320e+002°)
6.60693448007594e-008	(1.10235667121948e+002dB,1.79999220848670e+002°)
6.76082975391980e-008	(1.10235667121910e+002dB,1.79999202699904e+002°)
6.91830970918935e-008	(1.10235667121871e+002dB,1.79999184128400e+002°)
7.07945784384136e-008	(1.10235667121829e+002dB,1.79999165124309e+002°)
7.24435960074988e-008	(1.10235667121786e+002dB,1.79999145677556e+002°)
7.41310241300916e-008	(1.10235667121740e+002dB,1.79999125777830e+002°)
7.58577575029182e-008	(1.10235667121692e+002dB,1.79999105414579e+002°)
7.76247116628690e-008	(1.10235667121643e+002dB,1.79999084577008e+002°)
7.94328234724279e-008	(1.10235667121590e+002dB,1.79999063254067e+002°)
8.12830516164097e-008	(1.10235667121536e+002dB,1.79999041434451e+002°)
8.31763771102669e-008	(1.10235667121478e+002dB,1.79999019106592e+002°)
8.51138038202374e-008	(1.10235667121418e+002dB,1.79998996258649e+002°)
8.70963589956078e-008	(1.10235667121356e+002dB,1.79998972878509e+002°)
8.91250938133743e-008	(1.10235667121290e+002dB,1.79998948953777e+002°)
9.12010839355907e-008	(1.10235667121221e+002dB,1.79998924471765e+002°)
9.33254300796988e-008	(1.10235667121149e+002dB,1.79998899419494e+002°)
9.54992586021433e-008	(1.10235667121073e+002dB,1.79998873783681e+002°)
9.77237220955808e-008	(1.10235667120994e+002dB,1.79998847550733e+002°)
9.99999999999997e-008	(1.10235667120911e+002dB,1.79998820706741e+002°)
1.02329299228075e-007	(1.10235667120825e+002dB,1.79998793237472e+002°)
1.04712854805090e-007	(1.10235667120734e+002dB,1.79998765128362e+002°)
1.07151930523760e-007	(1.10235667120639e+002dB,1.79998736364506e+002°)
1.09647819614318e-007	(1.10235667120539e+002dB,1.79998706930655e+002°)
1.12201845430196e-007	(1.10235667120435e+002dB,1.79998676811200e+002°)
1.14815362149688e-007	(1.10235667120326e+002dB,1.79998645990174e+002°)
1.17489755493953e-007	(1.10235667120211e+002dB,1.79998614451233e+002°)
1.20226443461741e-007	(1.10235667120092e+002dB,1.79998582177657e+002°)
1.23026877081238e-007	(1.10235667119966e+002dB,1.79998549152332e+002°)
1.25892541179416e-007	(1.10235667119835e+002dB,1.79998515357748e+002°)
1.28824955169313e-007	(1.10235667119698e+002dB,1.79998480775988e+002°)
1.31825673855640e-007	(1.10235667119554e+002dB,1.79998445388715e+002°)
1.34896288259165e-007	(1.10235667119403e+002dB,1.79998409177166e+002°)
1.38038426460288e-007	(1.10235667119245e+002dB,1.79998372122142e+002°)
1.41253754462275e-007	(1.10235667119080e+002dB,1.79998334203996e+002°)
1.44543977074592e-007	(1.10235667118907e+002dB,1.79998295402622e+002°)
1.47910838816820e-007	(1.10235667118726e+002dB,1.79998255697449e+002°)
1.51356124843620e-007	(1.10235667118536e+002dB,1.79998215067423e+002°)
1.54881661891248e-007	(1.10235667118338e+002dB,1.79998173491002e+002°)
1.58489319246111e-007	(1.10235667118130e+002dB,1.79998130946142e+002°)
1.62181009735892e-007	(1.10235667117912e+002dB,1.79998087410285e+002°)
1.65958690743755e-007	(1.10235667117684e+002dB,1.79998042860348e+002°)
1.69824365246174e-007	(1.10235667117445e+002dB,1.79997997272709e+002°)
1.73780082874937e-007	(1.10235667117195e+002dB,1.79997950623198e+002°)
1.77827941003892e-007	(1.10235667116933e+002dB,1.79997902887080e+002°)
1.81970085860998e-007	(1.10235667116659e+002dB,1.79997854039045e+002°)
1.86208713666286e-007	(1.10235667116372e+002dB,1.79997804053193e+002°)
1.90546071796324e-007	(1.10235667116071e+002dB,1.79997752903021e+002°)
1.94984459975804e-007	(1.10235667115756e+002dB,1.79997700561408e+002°)
1.99526231496887e-007	(1.10235667115427e+002dB,1.79997647000603e+002°)
2.04173794466952e-007	(1.10235667115081e+002dB,1.79997592192206e+002°)
2.08929613085403e-007	(1.10235667114720e+002dB,1.79997536107158e+002°)
2.13796208950222e-007	(1.10235667114341e+002dB,1.79997478715721e+002°)
2.18776162394954e-007	(1.10235667113945e+002dB,1.79997419987466e+002°)
2.23872113856833e-007	(1.10235667113530e+002dB,1.79997359891254e+002°)
2.29086765276776e-007	(1.10235667113095e+002dB,1.79997298395221e+002°)
2.34422881531991e-007	(1.10235667112640e+002dB,1.79997235466762e+002°)
2.39883291901948e-007	(1.10235667112164e+002dB,1.79997171072511e+002°)
2.45470891568502e-007	(1.10235667111665e+002dB,1.79997105178325e+002°)
2.51188643150957e-007	(1.10235667111142e+002dB,1.79997037749266e+002°)
2.57039578276885e-007	(1.10235667110595e+002dB,1.79996968749583e+002°)
2.63026799189537e-007	(1.10235667110023e+002dB,1.79996898142690e+002°)
2.69153480392690e-007	(1.10235667109423e+002dB,1.79996825891152e+002°)
2.75422870333815e-007	(1.10235667108794e+002dB,1.79996751956659e+002°)
2.81838293126444e-007	(1.10235667108137e+002dB,1.79996676300011e+002°)
2.88403150312659e-007	(1.10235667107448e+002dB,1.79996598881093e+002°)
2.95120922666637e-007	(1.10235667106727e+002dB,1.79996519658857e+002°)
3.01995172040200e-007	(1.10235667105972e+002dB,1.79996438591298e+002°)
3.09029543251358e-007	(1.10235667105181e+002dB,1.79996355635432e+002°)
3.16227766016836e-007	(1.10235667104353e+002dB,1.79996270747277e+002°)
3.23593656929627e-007	(1.10235667103486e+002dB,1.79996183881822e+002°)
3.31131121482589e-007	(1.10235667102578e+002dB,1.79996094993011e+002°)
3.38844156139201e-007	(1.10235667101627e+002dB,1.79996004033714e+002°)
3.46736850452530e-007	(1.10235667100631e+002dB,1.79995910955702e+002°)
3.54813389233574e-007	(1.10235667099589e+002dB,1.79995815709625e+002°)
3.63078054770100e-007	(1.10235667098497e+002dB,1.79995718244982e+002°)
3.71535229097171e-007	(1.10235667097354e+002dB,1.79995618510096e+002°)
3.80189396320559e-007	(1.10235667096157e+002dB,1.79995516452086e+002°)
3.89045144994279e-007	(1.10235667094904e+002dB,1.79995412016840e+002°)
3.98107170553495e-007	(1.10235667093592e+002dB,1.79995305148984e+002°)
4.07380277804111e-007	(1.10235667092217e+002dB,1.79995195791856e+002°)
4.16869383470333e-007	(1.10235667090778e+002dB,1.79995083887473e+002°)
4.26579518801590e-007	(1.10235667089271e+002dB,1.79994969376502e+002°)
4.36515832240164e-007	(1.10235667087694e+002dB,1.79994852198229e+002°)
4.46683592150961e-007	(1.10235667086041e+002dB,1.79994732290523e+002°)
4.57088189614873e-007	(1.10235667084311e+002dB,1.79994609589807e+002°)
4.67735141287196e-007	(1.10235667082500e+002dB,1.79994484031025e+002°)
4.78630092322636e-007	(1.10235667080603e+002dB,1.79994355547603e+002°)
4.89778819368444e-007	(1.10235667078616e+002dB,1.79994224071418e+002°)
5.01187233627270e-007	(1.10235667076536e+002dB,1.79994089532759e+002°)
5.12861383991362e-007	(1.10235667074358e+002dB,1.79993951860292e+002°)
5.24807460249770e-007	(1.10235667072077e+002dB,1.79993810981021e+002°)
5.37031796370250e-007	(1.10235667069689e+002dB,1.79993666820251e+002°)
5.49540873857621e-007	(1.10235667067189e+002dB,1.79993519301546e+002°)
5.62341325190346e-007	(1.10235667064570e+002dB,1.79993368346688e+002°)
5.75439937337154e-007	(1.10235667061828e+002dB,1.79993213875640e+002°)
5.88843655355586e-007	(1.10235667058957e+002dB,1.79993055806499e+002°)
6.02559586074354e-007	(1.10235667055950e+002dB,1.79992894055455e+002°)
6.16595001861479e-007	(1.10235667052802e+002dB,1.79992728536745e+002°)
6.30957344480190e-007	(1.10235667049505e+002dB,1.79992559162610e+002°)
6.45654229034652e-007	(1.10235667046053e+002dB,1.79992385843244e+002°)
6.60693448007592e-007	(1.10235667042439e+002dB,1.79992208486751e+002°)
6.76082975391978e-007	(1.10235667038654e+002dB,1.79992026999096e+002°)
6.91830970918932e-007	(1.10235667034690e+002dB,1.79991841284050e+002°)
7.07945784384134e-007	(1.10235667030540e+002dB,1.79991651243145e+002°)
7.24435960074986e-007	(1.10235667026194e+002dB,1.79991456775619e+002°)
7.41310241300913e-007	(1.10235667021644e+002dB,1.79991257778362e+002°)
7.58577575029179e-007	(1.10235667016879e+002dB,1.79991054145864e+002°)
7.76247116628687e-007	(1.10235667011889e+002dB,1.79990845770156e+002°)
7.94328234724277e-007	(1.10235667006664e+002dB,1.79990632540755e+002°)
8.12830516164094e-007	(1.10235667001193e+002dB,1.79990414344603e+002°)
8.31763771102666e-007	(1.10235666995465e+002dB,1.79990191066010e+002°)
8.51138038202371e-007	(1.10235666989466e+002dB,1.79989962586591e+002°)
8.70963589956075e-007	(1.10235666983184e+002dB,1.79989728785203e+002°)
8.91250938133740e-007	(1.10235666976607e+002dB,1.79989489537882e+002°)
9.12010839355904e-007	(1.10235666969719e+002dB,1.79989244717774e+002°)
9.33254300796985e-007	(1.10235666962507e+002dB,1.79988994195075e+002°)
9.54992586021430e-007	(1.10235666954955e+002dB,1.79988737836952e+002°)
9.77237220955805e-007	(1.10235666947047e+002dB,1.79988475507482e+002°)
9.99999999999994e-007	(1.10235666938766e+002dB,1.79988207067574e+002°)
1.02329299228075e-006	(1.10235666930095e+002dB,1.79987932374898e+002°)
1.04712854805089e-006	(1.10235666921016e+002dB,1.79987651283809e+002°)
1.07151930523760e-006	(1.10235666911508e+002dB,1.79987363645267e+002°)
1.09647819614318e-006	(1.10235666901552e+002dB,1.79987069306763e+002°)
1.12201845430196e-006	(1.10235666891128e+002dB,1.79986768112236e+002°)
1.14815362149688e-006	(1.10235666880212e+002dB,1.79986459901988e+002°)
1.17489755493952e-006	(1.10235666868781e+002dB,1.79986144512602e+002°)
1.20226443461740e-006	(1.10235666856812e+002dB,1.79985821776854e+002°)
1.23026877081237e-006	(1.10235666844278e+002dB,1.79985491523625e+002°)
1.25892541179416e-006	(1.10235666831154e+002dB,1.79985153577812e+002°)
1.28824955169313e-006	(1.10235666817412e+002dB,1.79984807760231e+002°)
1.31825673855640e-006	(1.10235666803022e+002dB,1.79984453887524e+002°)
1.34896288259164e-006	(1.10235666787953e+002dB,1.79984091772065e+002°)
1.38038426460288e-006	(1.10235666772175e+002dB,1.79983721221854e+002°)
1.41253754462274e-006	(1.10235666755653e+002dB,1.79983342040421e+002°)
1.44543977074592e-006	(1.10235666738352e+002dB,1.79982954026720e+002°)
1.47910838816820e-006	(1.10235666720236e+002dB,1.79982556975020e+002°)
1.51356124843620e-006	(1.10235666701266e+002dB,1.79982150674800e+002°)
1.54881661891247e-006	(1.10235666681402e+002dB,1.79981734910634e+002°)
1.58489319246110e-006	(1.10235666660602e+002dB,1.79981309462078e+002°)
1.62181009735892e-006	(1.10235666638821e+002dB,1.79980874103555e+002°)
1.65958690743755e-006	(1.10235666616014e+002dB,1.79980428604231e+002°)
1.69824365246173e-006	(1.10235666592132e+002dB,1.79979972727897e+002°)
1.73780082874936e-006	(1.10235666567125e+002dB,1.79979506232842e+002°)
1.77827941003891e-006	(1.10235666540939e+002dB,1.79979028871724e+002°)
1.81970085860997e-006	(1.10235666513519e+002dB,1.79978540391440e+002°)
1.86208713666285e-006	(1.10235666484807e+002dB,1.79978040532991e+002°)
1.90546071796323e-006	(1.10235666454742e+002dB,1.79977529031348e+002°)
1.94984459975803e-006	(1.10235666423259e+002dB,1.79977005615304e+002°)
1.99526231496886e-006	(1.10235666390293e+002dB,1.79976470007338e+002°)
2.04173794466951e-006	(1.10235666355774e+002dB,1.79975921923465e+002°)
2.08929613085402e-006	(1.10235666319627e+002dB,1.79975361073082e+002°)
2.13796208950222e-006	(1.10235666281777e+002dB,1.79974787158821e+002°)
2.18776162394954e-006	(1.10235666242143e+002dB,1.79974199876384e+002°)
2.23872113856832e-006	(1.10235666200641e+002dB,1.79973598914388e+002°)
2.29086765276776e-006	(1.10235666157184e+002dB,1.79972983954195e+002°)
2.34422881531990e-006	(1.10235666111678e+002dB,1.79972354669745e+002°)
2.39883291901947e-006	(1.10235666064028e+002dB,1.79971710727385e+002°)
2.45470891568501e-006	(1.10235666014131e+002dB,1.79971051785687e+002°)
2.51188643150956e-006	(1.10235665961884e+002dB,1.79970377495273e+002°)
2.57039578276884e-006	(1.10235665907174e+002dB,1.79969687498626e+002°)
2.63026799189536e-006	(1.10235665849885e+002dB,1.79968981429902e+002°)
2.69153480392689e-006	(1.10235665789897e+002dB,1.79968258914734e+002°)
2.75422870333814e-006	(1.10235665727082e+002dB,1.79967519570037e+002°)
2.81838293126443e-006	(1.10235665661306e+002dB,1.79966763003800e+002°)
2.88403150312658e-006	(1.10235665592430e+002dB,1.79965988814884e+002°)
2.95120922666636e-006	(1.10235665520308e+002dB,1.79965196592805e+002°)
3.01995172040199e-006	(1.10235665444787e+002dB,1.79964385917516e+002°)
3.09029543251357e-006	(1.10235665365707e+002dB,1.79963556359189e+002°)
3.16227766016835e-006	(1.10235665282900e+002dB,1.79962707477982e+002°)
3.23593656929626e-006	(1.10235665196191e+002dB,1.79961838823808e+002°)
3.31131121482588e-006	(1.10235665105395e+002dB,1.79960949936098e+002°)
3.38844156139200e-006	(1.10235665010320e+002dB,1.79960040343552e+002°)
3.46736850452529e-006	(1.10235664910764e+002dB,1.79959109563896e+002°)
3.54813389233573e-006	(1.10235664806516e+002dB,1.79958157103618e+002°)
3.63078054770098e-006	(1.10235664697356e+002dB,1.79957182457714e+002°)
3.71535229097169e-006	(1.10235664583050e+002dB,1.79956185109417e+002°)
3.80189396320558e-006	(1.10235664463358e+002dB,1.79955164529920e+002°)
3.89045144994277e-006	(1.10235664338025e+002dB,1.79954120178103e+002°)
3.98107170553494e-006	(1.10235664206785e+002dB,1.79953051500239e+002°)
4.07380277804109e-006	(1.10235664069359e+002dB,1.79951957929703e+002°)
4.16869383470332e-006	(1.10235663925458e+002dB,1.79950838886673e+002°)
4.26579518801589e-006	(1.10235663774774e+002dB,1.79949693777822e+002°)
4.36515832240162e-006	(1.10235663616989e+002dB,1.79948521996001e+002°)
4.46683592150959e-006	(1.10235663451767e+002dB,1.79947322919919e+002°)
4.57088189614871e-006	(1.10235663278759e+002dB,1.79946095913815e+002°)
4.67735141287194e-006	(1.10235663097597e+002dB,1.79944840327118e+002°)
4.78630092322634e-006	(1.10235662907898e+002dB,1.79943555494106e+002°)
4.89778819368442e-006	(1.10235662709258e+002dB,1.79942240733546e+002°)
5.01187233627268e-006	(1.10235662501257e+002dB,1.79940895348342e+002°)
5.12861383991360e-006	(1.10235662283452e+002dB,1.79939518625158e+002°)
5.24807460249768e-006	(1.10235662055383e+002dB,1.79938109834044e+002°)
5.37031796370248e-006	(1.10235661816566e+002dB,1.79936668228047e+002°)
5.49540873857620e-006	(1.10235661566493e+002dB,1.79935193042816e+002°)
5.62341325190344e-006	(1.10235661304635e+002dB,1.79933683496196e+002°)
5.75439937337152e-006	(1.10235661030436e+002dB,1.79932138787812e+002°)
5.88843655355584e-006	(1.10235660743314e+002dB,1.79930558098651e+002°)
6.02559586074352e-006	(1.10235660442661e+002dB,1.79928940590619e+002°)
6.16595001861477e-006	(1.10235660127838e+002dB,1.79927285406102e+002°)
6.30957344480187e-006	(1.10235659798178e+002dB,1.79925591667510e+002°)
