Freq.	-V(n006)/I(R1a_2)
1.00000000000000e+004	(1.09334386432433e+002dB,-2.41729343535176e+001°)
1.00230523807790e+004	(1.09339337904058e+002dB,-2.43395506654706e+001°)
1.00461579027840e+004	(1.09344185999211e+002dB,-2.45072955586199e+001°)
1.00693166885180e+004	(1.09348928411720e+002dB,-2.46761710744678e+001°)
1.00925288607668e+004	(1.09353562809200e+002dB,-2.48461790745058e+001°)
1.01157945425990e+004	(1.09358086833209e+002dB,-2.50173212350467e+001°)
1.01391138573668e+004	(1.09362498099425e+002dB,-2.51895990420046e+001°)
1.01624869287070e+004	(1.09366794197844e+002dB,-2.53630137856245e+001°)
1.01859138805412e+004	(1.09370972692995e+002dB,-2.55375665551639e+001°)
1.02093948370768e+004	(1.09375031124182e+002dB,-2.57132582335293e+001°)
1.02329299228075e+004	(1.09378967005738e+002dB,-2.58900894918716e+001°)
1.02565192625141e+004	(1.09382777827314e+002dB,-2.60680607841409e+001°)
1.02801629812647e+004	(1.09386461054176e+002dB,-2.62471723416084e+001°)
1.03038612044162e+004	(1.09390014127538e+002dB,-2.64274241673533e+001°)
1.03276140576140e+004	(1.09393434464913e+002dB,-2.66088160307228e+001°)
1.03514216667934e+004	(1.09396719460485e+002dB,-2.67913474617683e+001°)
1.03752841581801e+004	(1.09399866485513e+002dB,-2.69750177456583e+001°)
1.03992016582906e+004	(1.09402872888751e+002dB,-2.71598259170779e+001°)
1.04231742939330e+004	(1.09405735996908e+002dB,-2.73457707546145e+001°)
1.04472021922080e+004	(1.09408453115114e+002dB,-2.75328507751364e+001°)
1.04712854805090e+004	(1.09411021527434e+002dB,-2.77210642281690e+001°)
1.04954242865232e+004	(1.09413438497391e+002dB,-2.79104090902730e+001°)
1.05196187382322e+004	(1.09415701268528e+002dB,-2.81008830594308e+001°)
1.05438689639126e+004	(1.09417807064995e+002dB,-2.82924835494441e+001°)
1.05681750921366e+004	(1.09419753092159e+002dB,-2.84852076843515e+001°)
1.05925372517729e+004	(1.09421536537250e+002dB,-2.86790522928689e+001°)
1.06169555719872e+004	(1.09423154570034e+002dB,-2.88740139028607e+001°)
1.06414301822431e+004	(1.09424604343509e+002dB,-2.90700887358459e+001°)
1.06659612123026e+004	(1.09425882994641e+002dB,-2.92672727015478e+001°)
1.06905487922266e+004	(1.09426987645121e+002dB,-2.94655613924910e+001°)
1.07151930523760e+004	(1.09427915402158e+002dB,-2.96649500786544e+001°)
1.07398941234124e+004	(1.09428663359296e+002dB,-2.98654337021865e+001°)
1.07646521362983e+004	(1.09429228597269e+002dB,-3.00670068721887e+001°)
1.07894672222983e+004	(1.09429608184879e+002dB,-3.02696638595759e+001°)
1.08143395129794e+004	(1.09429799179911e+002dB,-3.04733985920195e+001°)
1.08392691402120e+004	(1.09429798630075e+002dB,-3.06782046489819e+001°)
1.08642562361706e+004	(1.09429603573979e+002dB,-3.08840752568481e+001°)
1.08893009333343e+004	(1.09429211042134e+002dB,-3.10910032841653e+001°)
1.09144033644875e+004	(1.09428618057987e+002dB,-3.12989812369935e+001°)
1.09395636627209e+004	(1.09427821638990e+002dB,-3.15080012543805e+001°)
1.09647819614318e+004	(1.09426818797693e+002dB,-3.17180551039643e+001°)
1.09900583943252e+004	(1.09425606542870e+002dB,-3.19291341777150e+001°)
1.10153930954141e+004	(1.09424181880676e+002dB,-3.21412294878211e+001°)
1.10407861990207e+004	(1.09422541815832e+002dB,-3.23543316627309e+001°)
1.10662378397766e+004	(1.09420683352841e+002dB,-3.25684309433563e+001°)
1.10917481526240e+004	(1.09418603497227e+002dB,-3.27835171794466e+001°)
1.11173172728159e+004	(1.09416299256814e+002dB,-3.29995798261426e+001°)
1.11429453359173e+004	(1.09413767643020e+002dB,-3.32166079407167e+001°)
1.11686324778056e+004	(1.09411005672186e+002dB,-3.34345901795110e+001°)
1.11943788346715e+004	(1.09408010366931e+002dB,-3.36535147950768e+001°)
1.12201845430196e+004	(1.09404778757531e+002dB,-3.38733696335294e+001°)
1.12460497396692e+004	(1.09401307883324e+002dB,-3.40941421321220e+001°)
1.12719745617551e+004	(1.09397594794140e+002dB,-3.43158193170489e+001°)
1.12979591467279e+004	(1.09393636551755e+002dB,-3.45383878014856e+001°)
1.13240036323555e+004	(1.09389430231365e+002dB,-3.47618337838750e+001°)
1.13501081567231e+004	(1.09384972923084e+002dB,-3.49861430464651e+001°)
1.13762728582343e+004	(1.09380261733466e+002dB,-3.52113009541080e+001°)
1.14024978756117e+004	(1.09375293787039e+002dB,-3.54372924533268e+001°)
1.14287833478977e+004	(1.09370066227860e+002dB,-3.56641020716582e+001°)
1.14551294144553e+004	(1.09364576221095e+002dB,-3.58917139172780e+001°)
1.14815362149688e+004	(1.09358820954603e+002dB,-3.61201116789149e+001°)
1.15080038894443e+004	(1.09352797640542e+002dB,-3.63492786260622e+001°)
1.15345325782109e+004	(1.09346503516986e+002dB,-3.65791976094909e+001°)
1.15611224219210e+004	(1.09339935849554e+002dB,-3.68098510620715e+001°)
1.15877735615512e+004	(1.09333091933053e+002dB,-3.70412209999112e+001°)
1.16144861384034e+004	(1.09325969093119e+002dB,-3.72732890238098e+001°)
1.16412602941049e+004	(1.09318564687879e+002dB,-3.75060363210411e+001°)
1.16680961706096e+004	(1.09310876109608e+002dB,-3.77394436674646e+001°)
1.16949939101987e+004	(1.09302900786396e+002dB,-3.79734914299699e+001°)
1.17219536554813e+004	(1.09294636183813e+002dB,-3.82081595692609e+001°)
1.17489755493953e+004	(1.09286079806576e+002dB,-3.84434276429787e+001°)
1.17760597352080e+004	(1.09277229200215e+002dB,-3.86792748091719e+001°)
1.18032063565173e+004	(1.09268081952733e+002dB,-3.89156798301118e+001°)
1.18304155572516e+004	(1.09258635696267e+002dB,-3.91526210764578e+001°)
1.18576874816716e+004	(1.09248888108731e+002dB,-3.93900765317722e+001°)
1.18850222743701e+004	(1.09238836915461e+002dB,-3.96280237973881e+001°)
1.19124200802737e+004	(1.09228479890844e+002dB,-3.98664400976285e+001°)
1.19398810446427e+004	(1.09217814859929e+002dB,-4.01053022853779e+001°)
1.19674053130724e+004	(1.09206839700031e+002dB,-4.03445868480050e+001°)
1.19949930314937e+004	(1.09195552342316e+002dB,-4.05842699136364e+001°)
1.20226443461741e+004	(1.09183950773361e+002dB,-4.08243272577793e+001°)
1.20503594037179e+004	(1.09172033036698e+002dB,-4.10647343102896e+001°)
1.20781383510678e+004	(1.09159797234334e+002dB,-4.13054661626833e+001°)
1.21059813355048e+004	(1.09147241528246e+002dB,-4.15464975757894e+001°)
1.21338885046497e+004	(1.09134364141845e+002dB,-4.17878029877380e+001°)
1.21618600064636e+004	(1.09121163361416e+002dB,-4.20293565222789e+001°)
1.21898959892486e+004	(1.09107637537519e+002dB,-4.22711319974262e+001°)
1.22179966016487e+004	(1.09093785086366e+002dB,-4.25131029344246e+001°)
1.22461619926504e+004	(1.09079604491157e+002dB,-4.27552425670271e+001°)
1.22743923115840e+004	(1.09065094303377e+002dB,-4.29975238510803e+001°)
1.23026877081238e+004	(1.09050253144059e+002dB,-4.32399194744087e+001°)
1.23310483322890e+004	(1.09035079705003e+002dB,-4.34824018669883e+001°)
1.23594743344450e+004	(1.09019572749950e+002dB,-4.37249432114040e+001°)
1.23879658653036e+004	(1.09003731115717e+002dB,-4.39675154535765e+001°)
1.24165230759241e+004	(1.08987553713284e+002dB,-4.42100903137554e+001°)
1.24451461177138e+004	(1.08971039528828e+002dB,-4.44526392977607e+001°)
1.24738351424294e+004	(1.08954187624712e+002dB,-4.46951337084678e+001°)
1.25025903021771e+004	(1.08936997140427e+002dB,-4.49375446575220e+001°)
1.25314117494141e+004	(1.08919467293470e+002dB,-4.51798430772692e+001°)
1.25602996369487e+004	(1.08901597380183e+002dB,-4.54219997328938e+001°)
1.25892541179416e+004	(1.08883386776524e+002dB,-4.56639852347489e+001°)
1.26182753459066e+004	(1.08864834938787e+002dB,-4.59057700508652e+001°)
1.26473634747114e+004	(1.08845941404268e+002dB,-4.61473245196270e+001°)
1.26765186585784e+004	(1.08826705791868e+002dB,-4.63886188625993e+001°)
1.27057410520853e+004	(1.08807127802634e+002dB,-4.66296231974935e+001°)
1.27350308101665e+004	(1.08787207220253e+002dB,-4.68703075512561e+001°)
1.27643880881134e+004	(1.08766943911465e+002dB,-4.71106418732661e+001°)
1.27938130415752e+004	(1.08746337826432e+002dB,-4.73505960486253e+001°)
1.28233058265601e+004	(1.08725388999039e+002dB,-4.75901399115292e+001°)
1.28528665994361e+004	(1.08704097547126e+002dB,-4.78292432586975e+001°)
1.28824955169313e+004	(1.08682463672668e+002dB,-4.80678758628557e+001°)
1.29121927361353e+004	(1.08660487661884e+002dB,-4.83060074862461e+001°)
1.29419584144998e+004	(1.08638169885285e+002dB,-4.85436078941570e+001°)
1.29717927098395e+004	(1.08615510797662e+002dB,-4.87806468684504e+001°)
1.30016957803328e+004	(1.08592510938002e+002dB,-4.90170942210782e+001°)
1.30316677845229e+004	(1.08569170929353e+002dB,-4.92529198075634e+001°)
1.30617088813183e+004	(1.08545491478615e+002dB,-4.94880935404394e+001°)
1.30918192299940e+004	(1.08521473376273e+002dB,-4.97225854026246e+001°)
1.31219989901919e+004	(1.08497117496073e+002dB,-4.99563654607223e+001°)
1.31522483219223e+004	(1.08472424794626e+002dB,-5.01894038782273e+001°)
1.31825673855640e+004	(1.08447396310963e+002dB,-5.04216709286264e+001°)
1.32129563418657e+004	(1.08422033166018e+002dB,-5.06531370083769e+001°)
1.32434153519466e+004	(1.08396336562063e+002dB,-5.08837726497499e+001°)
1.32739445772973e+004	(1.08370307782079e+002dB,-5.11135485335229e+001°)
1.33045441797808e+004	(1.08343948189068e+002dB,-5.13424355015096e+001°)
1.33352143216332e+004	(1.08317259225315e+002dB,-5.15704045689112e+001°)
1.33659551654643e+004	(1.08290242411594e+002dB,-5.17974269364794e+001°)
1.33967668742593e+004	(1.08262899346313e+002dB,-5.20234740024755e+001°)
1.34276496113785e+004	(1.08235231704620e+002dB,-5.22485173744146e+001°)
1.34586035405594e+004	(1.08207241237445e+002dB,-5.24725288805846e+001°)
1.34896288259164e+004	(1.08178929770505e+002dB,-5.26954805813256e+001°)
1.35207256319427e+004	(1.08150299203251e+002dB,-5.29173447800624e+001°)
1.35518941235103e+004	(1.08121351507778e+002dB,-5.31380940340773e+001°)
1.35831344658714e+004	(1.08092088727682e+002dB,-5.33577011650157e+001°)
1.36144468246594e+004	(1.08062512976887e+002dB,-5.35761392691131e+001°)
1.36458313658891e+004	(1.08032626438416e+002dB,-5.37933817271365e+001°)
1.36772882559584e+004	(1.08002431363138e+002dB,-5.40094022140320e+001°)
1.37088176616484e+004	(1.07971930068465e+002dB,-5.42241747082713e+001°)
1.37404197501250e+004	(1.07941124937027e+002dB,-5.44376735008891e+001°)
1.37720946889394e+004	(1.07910018415303e+002dB,-5.46498732042065e+001°)
1.38038426460287e+004	(1.07878613012227e+002dB,-5.48607487602344e+001°)
1.38356637897177e+004	(1.07846911297764e+002dB,-5.50702754487522e+001°)
1.38675582887188e+004	(1.07814915901458e+002dB,-5.52784288950553e+001°)
1.38995263121334e+004	(1.07782629510954e+002dB,-5.54851850773712e+001°)
1.39315680294529e+004	(1.07750054870503e+002dB,-5.56905203339378e+001°)
1.39636836105593e+004	(1.07717194779436e+002dB,-5.58944113697426e+001°)
1.39958732257261e+004	(1.07684052090627e+002dB,-5.60968352629211e+001°)
1.40281370456195e+004	(1.07650629708940e+002dB,-5.62977694708111e+001°)
1.40604752412990e+004	(1.07616930589653e+002dB,-5.64971918356646e+001°)
1.40928879842186e+004	(1.07582957736874e+002dB,-5.66950805900150e+001°)
1.41253754462274e+004	(1.07548714201950e+002dB,-5.68914143617005e+001°)
1.41579377995707e+004	(1.07514203081861e+002dB,-5.70861721785437e+001°)
1.41905752168908e+004	(1.07479427517606e+002dB,-5.72793334726911e+001°)
1.42232878712281e+004	(1.07444390692591e+002dB,-5.74708780846103e+001°)
1.42560759360218e+004	(1.07409095831008e+002dB,-5.76607862667501e+001°)
1.42889395851109e+004	(1.07373546196211e+002dB,-5.78490386868665e+001°)
1.43218789927353e+004	(1.07337745089099e+002dB,-5.80356164310158e+001°)
1.43548943335364e+004	(1.07301695846496e+002dB,-5.82205010062184e+001°)
1.43879857825583e+004	(1.07265401839535e+002dB,-5.84036743428007e+001°)
1.44211535152486e+004	(1.07228866472049e+002dB,-5.85851187964158e+001°)
1.44543977074592e+004	(1.07192093178967e+002dB,-5.87648171497490e+001°)
1.44877185354475e+004	(1.07155085424722e+002dB,-5.89427526139147e+001°)
1.45211161758773e+004	(1.07117846701666e+002dB,-5.91189088295480e+001°)
1.45545908058195e+004	(1.07080380528496e+002dB,-5.92932698675988e+001°)
1.45881426027534e+004	(1.07042690448697e+002dB,-5.94658202298341e+001°)
1.46217717445671e+004	(1.07004780028994e+002dB,-5.96365448490538e+001°)
1.46554784095590e+004	(1.06966652857822e+002dB,-5.98054290890280e+001°)
1.46892627764385e+004	(1.06928312543817e+002dB,-5.99724587441630e+001°)
1.47231250243271e+004	(1.06889762714315e+002dB,-6.01376200389017e+001°)
1.47570653327588e+004	(1.06851007013879e+002dB,-6.03008996268669e+001°)
1.47910838816819e+004	(1.06812049102843e+002dB,-6.04622845897555e+001°)
1.48251808514594e+004	(1.06772892655874e+002dB,-6.06217624359894e+001°)
1.48593564228699e+004	(1.06733541360563e+002dB,-6.07793210991338e+001°)
1.48936107771090e+004	(1.06693998916033e+002dB,-6.09349489360874e+001°)
1.49279440957898e+004	(1.06654269031569e+002dB,-6.10886347250566e+001°)
1.49623565609442e+004	(1.06614355425281e+002dB,-6.12403676633172e+001°)
1.49968483550236e+004	(1.06574261822786e+002dB,-6.13901373647771e+001°)
1.50314196609001e+004	(1.06533991955912e+002dB,-6.15379338573426e+001°)
1.50660706618673e+004	(1.06493549561438e+002dB,-6.16837475801017e+001°)
1.51008015416413e+004	(1.06452938379853e+002dB,-6.18275693803294e+001°)
1.51356124843619e+004	(1.06412162154146e+002dB,-6.19693905103241e+001°)
1.51705036745932e+004	(1.06371224628623e+002dB,-6.21092026240848e+001°)
1.52054752973248e+004	(1.06330129547751e+002dB,-6.22469977738338e+001°)
1.52405275379728e+004	(1.06288880655028e+002dB,-6.23827684063989e+001°)
1.52756605823806e+004	(1.06247481691893e+002dB,-6.25165073594551e+001°)
1.53108746168202e+004	(1.06205936396647e+002dB,-6.26482078576430e+001°)
1.53461698279928e+004	(1.06164248503417e+002dB,-6.27778635085642e+001°)
1.53815464030302e+004	(1.06122421741145e+002dB,-6.29054682986652e+001°)
1.54170045294954e+004	(1.06080459832603e+002dB,-6.30310165890190e+001°)
1.54525443953840e+004	(1.06038366493442e+002dB,-6.31545031110057e+001°)
1.54881661891247e+004	(1.05996145431265e+002dB,-6.32759229619090e+001°)
1.55238700995807e+004	(1.05953800344734e+002dB,-6.33952716004262e+001°)
1.55596563160506e+004	(1.05911334922703e+002dB,-6.35125448421068e+001°)
1.55955250282694e+004	(1.05868752843379e+002dB,-6.36277388547215e+001°)
1.56314764264094e+004	(1.05826057773518e+002dB,-6.37408501535709e+001°)
1.56675107010813e+004	(1.05783253367635e+002dB,-6.38518755967407e+001°)
1.57036280433354e+004	(1.05740343267264e+002dB,-6.39608123803089e+001°)
1.57398286446620e+004	(1.05697331100222e+002dB,-6.40676580335118e+001°)
1.57761126969933e+004	(1.05654220479919e+002dB,-6.41724104138748e+001°)
1.58124803927037e+004	(1.05611015004687e+002dB,-6.42750677023154e+001°)
1.58489319246110e+004	(1.05567718257136e+002dB,-6.43756283982214e+001°)
1.58854674859776e+004	(1.05524333803540e+002dB,-6.44740913145139e+001°)
1.59220872705115e+004	(1.05480865193243e+002dB,-6.45704555726948e+001°)
1.59587914723672e+004	(1.05437315958100e+002dB,-6.46647205978916e+001°)
1.59955802861465e+004	(1.05393689611933e+002dB,-6.47568861138971e+001°)
1.60324539069002e+004	(1.05349989650021e+002dB,-6.48469521382139e+001°)
1.60694125301286e+004	(1.05306219548608e+002dB,-6.49349189771065e+001°)
1.61064563517825e+004	(1.05262382764434e+002dB,-6.50207872206647e+001°)
1.61435855682647e+004	(1.05218482734300e+002dB,-6.51045577378854e+001°)
1.61808003764305e+004	(1.05174522874641e+002dB,-6.51862316717720e+001°)
1.62181009735891e+004	(1.05130506581131e+002dB,-6.52658104344618e+001°)
1.62554875575047e+004	(1.05086437228309e+002dB,-6.53432957023788e+001°)
1.62929603263970e+004	(1.05042318169222e+002dB,-6.54186894114192e+001°)
1.63305194789432e+004	(1.04998152735093e+002dB,-6.54919937521719e+001°)
1.63681652142779e+004	(1.04953944235007e+002dB,-6.55632111651780e+001°)
1.64058977319952e+004	(1.04909695955615e+002dB,-6.56323443362288e+001°)
1.64437172321491e+004	(1.04865411160863e+002dB,-6.56993961917103e+001°)
1.64816239152549e+004	(1.04821093091733e+002dB,-6.57643698939931e+001°)
1.65196179822900e+004	(1.04776744966005e+002dB,-6.58272688368713e+001°)
1.65576996346951e+004	(1.04732369978035e+002dB,-6.58880966410518e+001°)
1.65958690743754e+004	(1.04687971298550e+002dB,-6.59468571496988e+001°)
1.66341265037015e+004	(1.04643552074465e+002dB,-6.60035544240305e+001°)
1.66724721255104e+004	(1.04599115428703e+002dB,-6.60581927389762e+001°)
1.67109061431069e+004	(1.04554664460043e+002dB,-6.61107765788888e+001°)
1.67494287602642e+004	(1.04510202242974e+002dB,-6.61613106333196e+001°)
1.67880401812254e+004	(1.04465731827567e+002dB,-6.62097997928534e+001°)
1.68267406107045e+004	(1.04421256239360e+002dB,-6.62562491450058e+001°)
1.68655302538872e+004	(1.04376778479257e+002dB,-6.63006639701857e+001°)
1.69044093164324e+004	(1.04332301523434e+002dB,-6.63430497377202e+001°)
1.69433780044731e+004	(1.04287828323262e+002dB,-6.63834121019465e+001°)
1.69824365246172e+004	(1.04243361805243e+002dB,-6.64217568983690e+001°)
1.70215850839493e+004	(1.04198904870948e+002dB,-6.64580901398823e+001°)
1.70608238900310e+004	(1.04154460396977e+002dB,-6.64924180130631e+001°)
1.71001531509027e+004	(1.04110031234920e+002dB,-6.65247468745266e+001°)
1.71395730750840e+004	(1.04065620211329e+002dB,-6.65550832473527e+001°)
1.71790838715757e+004	(1.04021230127702e+002dB,-6.65834338175783e+001°)
1.72186857498599e+004	(1.03976863760473e+002dB,-6.66098054307573e+001°)
1.72583789199018e+004	(1.03932523861011e+002dB,-6.66342050885892e+001°)
1.72981635921508e+004	(1.03888213155623e+002dB,-6.66566399456127e+001°)
1.73380399775412e+004	(1.03843934345571e+002dB,-6.66771173059687e+001°)
1.73780082874935e+004	(1.03799690107085e+002dB,-6.66956446202284e+001°)
1.74180687339159e+004	(1.03755483091398e+002dB,-6.67122294822871e+001°)
1.74582215292048e+004	(1.03711315924768e+002dB,-6.67268796263258e+001°)
1.74984668862463e+004	(1.03667191208521e+002dB,-6.67396029238356e+001°)
1.75388050184174e+004	(1.03623111519087e+002dB,-6.67504073807077e+001°)
1.75792361395867e+004	(1.03579079408053e+002dB,-6.67593011343867e+001°)
1.76197604641161e+004	(1.03535097402208e+002dB,-6.67662924510873e+001°)
1.76603782068614e+004	(1.03491168003600e+002dB,-6.67713897230716e+001°)
1.77010895831740e+004	(1.03447293689593e+002dB,-6.67746014659902e+001°)
1.77418948089014e+004	(1.03403476912929e+002dB,-6.67759363162806e+001°)
1.77827941003890e+004	(1.03359720101792e+002dB,-6.67754030286272e+001°)
1.78237876744807e+004	(1.03316025659873e+002dB,-6.67730104734778e+001°)
1.78648757485203e+004	(1.03272395966441e+002dB,-6.67687676346188e+001°)
1.79060585403527e+004	(1.03228833376411e+002dB,-6.67626836068047e+001°)
1.79473362683250e+004	(1.03185340220422e+002dB,-6.67547675934443e+001°)
1.79887091512876e+004	(1.03141918804906e+002dB,-6.67450289043390e+001°)
1.80301774085955e+004	(1.03098571412164e+002dB,-6.67334769534746e+001°)
1.80717412601090e+004	(1.03055300300445e+002dB,-6.67201212568643e+001°)
1.81134009261958e+004	(1.03012107704022e+002dB,-6.67049714304408e+001°)
1.81551566277311e+004	(1.02968995833268e+002dB,-6.66880371879983e+001°)
1.81970085860996e+004	(1.02925966874733e+002dB,-6.66693283391811e+001°)
1.82389570231961e+004	(1.02883022991228e+002dB,-6.66488547875189e+001°)
1.82810021614272e+004	(1.02840166321896e+002dB,-6.66266265285059e+001°)
1.83231442237119e+004	(1.02797398982291e+002dB,-6.66026536477246e+001°)
1.83653834334832e+004	(1.02754723064460e+002dB,-6.65769463190105e+001°)
1.84077200146893e+004	(1.02712140637014e+002dB,-6.65495148026584e+001°)
1.84501541917945e+004	(1.02669653745205e+002dB,-6.65203694436672e+001°)
1.84926861897805e+004	(1.02627264411003e+002dB,-6.64895206700235e+001°)
1.85353162341479e+004	(1.02584974633169e+002dB,-6.64569789910213e+001°)
1.85780445509167e+004	(1.02542786387328e+002dB,-6.64227549956165e+001°)
1.86208713666284e+004	(1.02500701626037e+002dB,-6.63868593508161e+001°)
1.86637969083464e+004	(1.02458722278862e+002dB,-6.63493028000999e+001°)
1.87068214036577e+004	(1.02416850252441e+002dB,-6.63100961618720e+001°)
1.87499450806739e+004	(1.02375087430553e+002dB,-6.62692503279433e+001°)
1.87931681680324e+004	(1.02333435674185e+002dB,-6.62267762620422e+001°)
1.88364908948977e+004	(1.02291896821594e+002dB,-6.61826849983520e+001°)
1.88799134909627e+004	(1.02250472688369e+002dB,-6.61369876400740e+001°)
