Freq.	V(vo)
2.00000000000000e+001	(2.73603972483218e+000dB,-1.21893357274051e+001°)
2.04658598456151e+001	(2.69821288787991e+000dB,-1.22163377735347e+001°)
2.09425709610180e+001	(2.66040981212416e+000dB,-1.22388927101064e+001°)
2.14303861047521e+001	(2.62266212358951e+000dB,-1.22570618351132e+001°)
2.19295639228637e+001	(2.58500066528072e+000dB,-1.22709190386687e+001°)
2.24403690860393e+001	(2.54745535678559e+000dB,-1.22805503792281e+001°)
2.29630724299377e+001	(2.51005505995377e+000dB,-1.22860535854261e+001°)
2.34979510987906e+001	(2.47282745164229e+000dB,-1.22875374881490e+001°)
2.40452886923483e+001	(2.43579890442474e+000dB,-1.22851213880905e+001°)
2.46053754162476e+001	(2.39899437605828e+000dB,-1.22789343645736e+001°)
2.51785082358833e+001	(2.36243730839104e+000dB,-1.22691145318659e+001°)
2.57649910338627e+001	(2.32614953627744e+000dB,-1.22558082495581e+001°)
2.63651347711281e+001	(2.29015120694706e+000dB,-1.22391692938067e+001°)
2.69792576518331e+001	(2.25446071015389e+000dB,-1.22193579963855e+001°)
2.76076852920577e+001	(2.21909461931130e+000dB,-1.21965403585133e+001°)
2.82507508924551e+001	(2.18406764370191e+000dB,-1.21708871463689e+001°)
2.89087954149185e+001	(2.14939259173910e+000dB,-1.21425729750378e+001°)
2.95821677633641e+001	(2.11508034515288e+000dB,-1.21117753874042e+001°)
3.02712249687242e+001	(2.08113984387400e+000dB,-1.20786739341734e+001°)
3.09763323782496e+001	(2.04757808130389e+000dB,-1.20434492608346e+001°)
3.16978638492223e+001	(2.01440010958064e+000dB,-1.20062822069298e+001°)
3.24362019471786e+001	(1.98160905438415e+000dB,-1.19673529225145e+001°)
3.31917381487512e+001	(1.94920613877002e+000dB,-1.19268400061736e+001°)
3.39648730492349e+001	(1.91719071547869e+000dB,-1.18849196684255e+001°)
3.47560165749875e+001	(1.88556030713492e+000dB,-1.18417649237877e+001°)
3.55655882007784e+001	(1.85431065373408e+000dB,-1.17975448142359e+001°)
3.63940171721997e+001	(1.82343576680219e+000dB,-1.17524236662378e+001°)
3.72417427332573e+001	(1.79292798962024e+000dB,-1.17065603830293e+001°)
3.81092143592649e+001	(1.76277806291353e+000dB,-1.16601077732940e+001°)
3.89968919951609e+001	(1.73297519542863e+000dB,-1.16132119169461e+001°)
3.99052462993776e+001	(1.70350713884860e+000dB,-1.15660115682959e+001°)
4.08347588933906e+001	(1.67436026653232e+000dB,-1.15186375964822e+001°)
4.17859226170808e+001	(1.64551965560553e+000dB,-1.14712124627389e+001°)
4.27592417900446e+001	(1.61696917197635e+000dB,-1.14238497337614e+001°)
4.37552324789910e+001	(1.58869155789805e+000dB,-1.13766536302222e+001°)
4.47744227713668e+001	(1.56066852175404e+000dB,-1.13297186092976e+001°)
4.58173530553554e+001	(1.53288082979282e+000dB,-1.12831289799451e+001°)
4.68845763063984e+001	(1.50530839959647e+000dB,-1.12369585496062e+001°)
4.79766583803898e+001	(1.47793039511795e+000dB,-1.11912703009810e+001°)
4.90941783137006e+001	(1.45072532317766e+000dB,-1.11461160975639e+001°)
5.02377286301916e+001	(1.42367113135784e+000dB,-1.11015364167038e+001°)
5.14079156553772e+001	(1.39674530728326e+000dB,-1.10575601090833e+001°)
5.26053598379076e+001	(1.36992497931979e+000dB,-1.10142041836858e+001°)
5.38306960785383e+001	(1.34318701876239e+000dB,-1.09714736175303e+001°)
5.50845740667633e+001	(1.31650814362109e+000dB,-1.09293611897046e+001°)
5.63676586252890e+001	(1.28986502414124e+000dB,-1.08878473395200e+001°)
5.76806300625321e+001	(1.26323439021989e+000dB,-1.08469000489253e+001°)
5.90241845333277e+001	(1.23659314089789e+000dB,-1.08064747496646e+001°)
6.03990344080403e+001	(1.20991845611711e+000dB,-1.07665142560384e+001°)
6.18059086502718e+001	(1.18318791093607e+000dB,-1.07269487245174e+001°)
6.32455532033675e+001	(1.15637959239325e+000dB,-1.06876956418689e+001°)
6.47187313859256e+001	(1.12947221919304e+000dB,-1.06486598438768e+001°)
6.62262242965182e+001	(1.10244526436941e+000dB,-1.06097335671602e+001°)
6.77688312278404e+001	(1.07527908104974e+000dB,-1.05707965370388e+001°)
6.93473700905062e+001	(1.04795503140204e+000dB,-1.05317160948020e+001°)
7.09626778467150e+001	(1.02045561879750e+000dB,-1.04923473681737e+001°)
7.26156109540202e+001	(9.92764623159295e-001dB,-1.04525334891562e+001°)
7.43070458194344e+001	(9.64867239397381e-001dB,-1.04121058638121e+001°)
7.60378792641121e+001	(9.36750218745390e-001dB,-1.03708844988967e+001°)
7.78090289988560e+001	(9.08402012723585e-001dB,-1.03286783905405e+001°)
7.96214341106993e+001	(8.79812919344743e-001dB,-1.02852859804480e+001°)
8.14760555608224e+001	(8.50975231066100e-001dB,-1.02404956852559e+001°)
8.33738766940670e+001	(8.21883383862631e-001dB,-1.01940865048066e+001°)
8.53159037603184e+001	(7.92534106659641e-001dB,-1.01458287151272e+001°)
8.73031664480331e+001	(7.62926570217808e-001dB,-1.00954846518180e+001°)
8.93367184301925e+001	(7.33062534407278e-001dB,-1.00428095893734e+001°)
9.14176379229749e+001	(7.02946492646152e-001dB,-9.98755272163305e+000°)
9.35470282574395e+001	(6.72585812111675e-001dB,-9.92945824810056e+000°)
9.57260184645275e+001	(6.41990868160869e-001dB,-9.86826657024705e+000°)
9.79557638736891e+001	(6.11175171227595e-001dB,-9.80371560111590e+000°)
1.00237446725454e+002	(5.80155484293074e-001dB,-9.73554219057563e+000°)
1.02572276798273e+002	(5.48951928866416e-001dB,-9.66348366737899e+000°)
1.04961492049954e+002	(5.17588077258299e-001dB,-9.58727949781061e+000°)
1.07406359274050e+002	(4.86091028795752e-001dB,-9.50667305910957e+000°)
1.09908174771525e+002	(4.54491467509049e-001dB,-9.42141352403478e+000°)
1.12468265038070e+002	(4.22823698734079e-001dB,-9.33125785092512e+000°)
1.15087987467431e+002	(3.91125662014039e-001dB,-9.23597287137188e+000°)
1.17768731071118e+002	(3.59438917669080e-001dB,-9.13533746520688e+000°)
1.20511917214871e+002	(3.27808604429547e-001dB,-9.02914480992161e+000°)
1.23319000372296e+002	(2.96283365610105e-001dB,-8.91720468891000e+000°)
1.26191468896038e+002	(2.64915241442243e-001dB,-8.79934584011601e+000°)
1.29130845806931e+002	(2.33759525388199e-001dB,-8.67541832380160e+000°)
1.32138689601519e+002	(2.02874582537114e-001dB,-8.54529588530911e+000°)
1.35216595078396e+002	(1.72321628534493e-001dB,-8.40887828593575e+000°)
1.38366194183787e+002	(1.42164467926141e-001dB,-8.26609357245346e+000°)
1.41589156876827e+002	(1.12469191305423e-001dB,-8.11690025347878e+000°)
1.44887192014998e+002	(8.33038312363731e-002dB,-7.96128934893051e+000°)
1.48262048260183e+002	(5.47379775839092e-002dB,-7.79928627729931e+000°)
1.51715515005836e+002	(2.68423536024175e-002dB,-7.63095254450585e+000°)
1.55249423325738e+002	(-3.11645085282747e-004dB,-7.45638719783300e+000°)
1.58865646944856e+002	(-2.66524456713834e-002dB,-7.27572800888836e+000°)
1.62566103232819e+002	(-5.21088237175247e-002dB,-7.08915235085634e+000°)
1.66352754220534e+002	(-7.66104544448558e-002dB,-6.89687773750831e+000°)
1.70227607640475e+002	(-1.00088484298795e-001dB,-6.69916199459171e+000°)
1.74192717991216e+002	(-1.22476116549056e-001dB,-6.49630303832860e+000°)
1.78250187626749e+002	(-1.43709203979419e-001dB,-6.28863824080929e+000°)
1.82402167871181e+002	(-1.63726841118577e-001dB,-6.07654336800538e+000°)
1.86650860159398e+002	(-1.82471947984510e-001dB,-5.86043108286313e+000°)
1.90998517204287e+002	(-1.99891836994045e-001dB,-5.64074901333753e+000°)
1.95447444191162e+002	(-2.15938754539497e-001dB,-5.41797739313172e+000°)
1.99999999999999e+002	(-2.30570388780777e-001dB,-5.19262629109994e+000°)
2.04658598456150e+002	(-2.43750335448287e-001dB,-4.96523245354572e+000°)
2.09425709610179e+002	(-2.55448513911510e-001dB,-4.73635579174013e+000°)
2.14303861047521e+002	(-2.65641526431910e-001dB,-4.50657555464823e+000°)
2.19295639228636e+002	(-2.74312954377491e-001dB,-4.27648623382988e+000°)
2.24403690860392e+002	(-2.81453586214036e-001dB,-4.04669325353555e+000°)
2.29630724299376e+002	(-2.87061573273571e-001dB,-3.81780850393226e+000°)
2.34979510987905e+002	(-2.91142510607433e-001dB,-3.59044577898481e+000°)
2.40452886923482e+002	(-2.93709441614369e-001dB,-3.36521618266568e+000°)
2.46053754162476e+002	(-2.94782786559567e-001dB,-3.14272356777300e+000°)
2.51785082358833e+002	(-2.94390196518923e-001dB,-2.92356007069296e+000°)
2.57649910338626e+002	(-2.92566335652931e-001dB,-2.70830180297878e+000°)
2.63651347711281e+002	(-2.89352595999577e-001dB,-2.49750475671922e+000°)
2.69792576518330e+002	(-2.84796750128602e-001dB,-2.29170097549990e+000°)
2.76076852920576e+002	(-2.78952548001900e-001dB,-2.09139503647251e+000°)
2.82507508924550e+002	(-2.71879265200593e-001dB,-1.89706088190436e+000°)
2.89087954149185e+002	(-2.63641210298057e-001dB,-1.70913903078327e+000°)
2.95821677633641e+002	(-2.54307199567995e-001dB,-1.52803419290631e+000°)
3.02712249687241e+002	(-2.43950007418567e-001dB,-1.35411329958307e+000°)
3.09763323782495e+002	(-2.32645800940537e-001dB,-1.18770395693647e+000°)
3.16978638492222e+002	(-2.20473566764245e-001dB,-1.02909331997169e+000°)
3.24362019471785e+002	(-2.07514538058526e-001dB,-8.78527378304550e-001°)
3.31917381487511e+002	(-1.93851628989104e-001dB,-7.36210637883040e-001°)
3.39648730492348e+002	(-1.79568883318969e-001dB,-6.02306177282194e-001°)
3.47560165749874e+002	(-1.64750943102477e-001dB,-4.76936052320210e-001°)
3.55655882007783e+002	(-1.49482542623400e-001dB,-3.60182018864401e-001°)
3.63940171721995e+002	(-1.33848031889203e-001dB,-2.52086540773841e-001°)
3.72417427332572e+002	(-1.17930933136792e-001dB,-1.52654047965256e-001°)
3.81092143592648e+002	(-1.01813532958695e-001dB,-6.18524085120988e-002°)
3.89968919951608e+002	(-8.55765118375423e-002dB,2.03854215579693e-002°)
3.99052462993775e+002	(-6.92986121022761e-002dB,9.41596065859771e-002°)
4.08347588933904e+002	(-5.30563446010380e-002dB,1.59601532412175e-001°)
4.17859226170806e+002	(-3.69237337355091e-002dB,2.16871833280219e-001°)
4.27592417900445e+002	(-2.09720999254537e-002dB,2.66158375358631e-001°)
4.37552324789909e+002	(-5.26987807343134e-003dB,3.07674225220386e-001°)
4.47744227713666e+002	(1.01175298193430e-002dB,3.41655628895387e-001°)
4.58173530553553e+002	(2.51278700776100e-002dB,3.68360024217157e-001°)
4.68845763063983e+002	(3.97021232750106e-002dB,3.88064106195916e-001°)
4.79766583803896e+002	(5.37845633111561e-002dB,4.01061962180062e-001°)
4.90941783137004e+002	(6.73227924296382e-002dB,4.07663290600931e-001°)
5.02377286301914e+002	(8.02677550368451e-002dB,4.08191714263971e-001°)
5.14079156553771e+002	(9.25737332034614e-002dB,4.02983196412728e-001°)
5.26053598379074e+002	(1.04198326703576e-001dB,3.92384565236924e-001°)
5.38306960785381e+002	(1.15102420383166e-001dB,3.76752150106097e-001°)
5.50845740667631e+002	(1.25250141552098e-001dB,3.56450530623847e-001°)
5.63676586252888e+002	(1.34608809968148e-001dB,3.31851397590355e-001°)
5.76806300625319e+002	(1.43148882834610e-001dB,3.03332523173641e-001°)
5.90241845333275e+002	(1.50843897069123e-001dB,2.71276835977597e-001°)
6.03990344080401e+002	(1.57670410922216e-001dB,2.36071595285280e-001°)
6.18059086502716e+002	(1.63607946836809e-001dB,1.98107657513778e-001°)
6.32455532033673e+002	(1.68638937245234e-001dB,1.57778826853211e-001°)
6.47187313859254e+002	(1.72748674799706e-001dB,1.15481281146485e-001°)
6.62262242965179e+002	(1.75925268331600e-001dB,7.16130633095673e-002°)
6.77688312278402e+002	(1.78159605628487e-001dB,2.65736279481349e-002°)
6.93473700905060e+002	(1.79445323916300e-001dB,-1.92365676660807e-002°)
7.09626778467148e+002	(1.79778788726855e-001dB,-6.54164394939538e-002°)
7.26156109540200e+002	(1.79159081628844e-001dB,-1.11564631022569e-001°)
7.43070458194342e+002	(1.77587997095332e-001dB,-1.57279857643301e-001°)
7.60378792641119e+002	(1.75070048578077e-001dB,-2.02161252900464e-001°)
7.78090289988558e+002	(1.71612483655170e-001dB,-2.45808728366763e-001°)
7.96214341106991e+002	(1.67225307914678e-001dB,-2.87823358802507e-001°)
8.14760555608222e+002	(1.61921317033775e-001dB,-3.27807804037062e-001°)
8.33738766940667e+002	(1.55716136307967e-001dB,-3.65366778695067e-001°)
8.53159037603181e+002	(1.48628266680395e-001dB,-4.00107580470624e-001°)
8.73031664480328e+002	(1.40679136117662e-001dB,-4.31640687102047e-001°)
8.93367184301922e+002	(1.31893154973971e-001dB,-4.59580431534018e-001°)
9.14176379229746e+002	(1.22297773784447e-001dB,-4.83545763940584e-001°)
9.35470282574392e+002	(1.11923541729543e-001dB,-5.03161108327939e-001°)
9.57260184645272e+002	(1.00804163819863e-001dB,-5.18057320313927e-001°)
9.79557638736888e+002	(8.89765546652182e-002dB,-5.27872751389430e-001°)
1.00237446725454e+003	(7.64808865167042e-002dB,-5.32254423498176e-001°)
1.02572276798272e+003	(6.33606291128412e-002dB,-5.30859316101192e-001°)
1.04961492049954e+003	(4.96625787171959e-002dB,-5.23355766036094e-001°)
1.07406359274050e+003	(3.54368736198927e-002dB,-5.09424978425866e-001°)
1.09908174771524e+003	(2.07369932858216e-002dB,-4.88762644630480e-001°)
1.12468265038069e+003	(5.61973828087285e-003dB,-4.61080660797929e-001°)
1.15087987467431e+003	(-9.85481190580690e-003dB,-4.26108937954047e-001°)
1.17768731071117e+003	(-2.56233659885380e-002dB,-3.83597291804043e-001°)
1.20511917214871e+003	(-4.16195157152986e-002dB,-3.33317397531484e-001°)
1.23319000372296e+003	(-5.77738610046760e-002dB,-2.75064791913411e-001°)
1.26191468896038e+003	(-7.40141677751624e-002dB,-2.08660902081367e-001°)
1.29130845806930e+003	(-9.02655605626433e-002dB,-1.33955077289407e-001°)
1.32138689601518e+003	(-1.06450751655142e-001dB,-5.08265971999494e-002°)
1.35216595078396e+003	(-1.22490308031966e-001dB,4.08133724759798e-002°)
1.38366194183787e+003	(-1.38302956869468e-001dB,1.41019908537152e-001°)
1.41589156876827e+003	(-1.53805929777317e-001dB,2.49812576626438e-001°)
1.44887192014997e+003	(-1.68915345256710e-001dB,3.67173830457046e-001°)
1.48262048260183e+003	(-1.83546628133509e-001dB,4.93047600013141e-001°)
1.51715515005836e+003	(-1.97614963930573e-001dB,6.27338105093638e-001°)
1.55249423325738e+003	(-2.11035785309565e-001dB,7.69908930079182e-001°)
1.58865646944855e+003	(-2.23725286862481e-001dB,9.20582394461938e-001°)
1.62566103232819e+003	(-2.35600963677266e-001dB,1.07913925142381e+000°)
1.66352754220533e+003	(-2.46582168272251e-001dB,1.24531874353561e+000°)
1.70227607640474e+003	(-2.56590679710593e-001dB,1.41881904047009e+000°)
1.74192717991215e+003	(-2.65551278000840e-001dB,1.59929807850076e+000°)
1.78250187626748e+003	(-2.73392316287050e-001dB,1.78637481554275e+000°)
1.82402167871181e+003	(-2.80046282862809e-001dB,1.97963090869158e+000°)
1.86650860159397e+003	(-2.85450344727108e-001dB,2.17861281375304e+000°)
1.90998517204286e+003	(-2.89546864265822e-001dB,2.38283429831272e+000°)
1.95447444191161e+003	(-2.92283880699990e-001dB,2.59177935166490e+000°)
1.99999999999999e+003	(-2.93615548207790e-001dB,2.80490546664326e+000°)
2.04658598456150e+003	(-2.93502523099909e-001dB,3.02164726031331e+000°)
2.09425709610179e+003	(-2.91912293111370e-001dB,3.24142039286184e+000°)
2.14303861047520e+003	(-2.88819442746374e-001dB,3.46362573710145e+000°)
2.19295639228636e+003	(-2.84205849665266e-001dB,3.68765374503767e+000°)
2.24403690860391e+003	(-2.78060808301713e-001dB,3.91288895313866e+000°)
2.29630724299375e+003	(-2.70381078212323e-001dB,4.13871456446986e+000°)
2.34979510987905e+003	(-2.61170856053692e-001dB,4.36451704385057e+000°)
2.40452886923481e+003	(-2.50441671506310e-001dB,4.58969066170994e+000°)
2.46053754162475e+003	(-2.38212208884178e-001dB,4.81364192340948e+000°)
2.51785082358832e+003	(-2.24508057533866e-001dB,5.03579382339308e+000°)
2.57649910338625e+003	(-2.09361395401120e-001dB,5.25558986754245e+000°)
2.63651347711280e+003	(-1.92810611289244e-001dB,5.47249781240430e+000°)
2.69792576518329e+003	(-1.74899872317154e-001dB,5.68601307631419e+000°)
2.76076852920575e+003	(-1.55678643889756e-001dB,5.89566178466751e+000°)
2.82507508924549e+003	(-1.35201170094354e-001dB,6.10100341941218e+000°)
2.89087954149184e+003	(-1.13525922831957e-001dB,6.30163305102293e+000°)
2.95821677633640e+003	(-9.07150281780651e-002dB,6.49718313948922e+000°)
3.02712249687240e+003	(-6.68336784531844e-002dB,6.68732489899839e+000°)
3.09763323782494e+003	(-4.19495382787173e-002dB,6.87176922875916e+000°)
3.16978638492221e+003	(-1.61321525214155e-002dB,7.05026721963504e+000°)
3.24362019471784e+003	(1.05476364876172e-002dB,7.22261025277312e+000°)
3.31917381487510e+003	(3.80182557140399e-002dB,7.38862971208961e+000°)
3.39648730492347e+003	(6.62079461465493e-002dB,7.54819633725157e+000°)
3.47560165749873e+003	(9.50452802687777e-002dB,7.70121924762018e+000°)
3.55655882007782e+003	(1.24459647893720e-001dB,7.84764467047960e+000°)
3.63940171721994e+003	(1.54381706822297e-001dB,7.98745440881473e+000°)
3.72417427332571e+003	(1.84743795627541e-001dB,8.12066408493638e+000°)
3.81092143592647e+003	(2.15480306672179e-001dB,8.24732119648902e+000°)
3.89968919951606e+003	(2.46528018231540e-001dB,8.36750302087595e+000°)
3.99052462993773e+003	(2.77826385297440e-001dB,8.48131440300059e+000°)
4.08347588933903e+003	(3.09317789274403e-001dB,8.58888545956965e+000°)
4.17859226170805e+003	(3.40947747343160e-001dB,8.69036923110518e+000°)
4.27592417900444e+003	(3.72665082749035e-001dB,8.78593931040453e+000°)
4.37552324789908e+003	(4.04422057680183e-001dB,8.87578747353222e+000°)
4.47744227713665e+003	(4.36174470729266e-001dB,8.96012133664060e+000°)
4.58173530553552e+003	(4.67881721186610e-001dB,9.03916205905695e+000°)
4.68845763063981e+003	(4.99506842599854e-001dB,9.11314211021435e+000°)
4.79766583803895e+003	(5.31016508156292e-001dB,9.18230311521721e+000°)
4.90941783137003e+003	(5.62381010509210e-001dB,9.24689379113535e+000°)
5.02377286301913e+003	(5.93574218683350e-001dB,9.30716798359097e+000°)
5.14079156553769e+003	(6.24573514664755e-001dB,9.36338281082503e+000°)
5.26053598379073e+003	(6.55359712212689e-001dB,9.41579692026902e+000°)
5.38306960785379e+003	(6.85916960333741e-001dB,9.46466886067754e+000°)
5.50845740667629e+003	(7.16232633735225e-001dB,9.51025557113106e+000°)
5.63676586252887e+003	(7.46297212433806e-001dB,9.55281098668103e+000°)
5.76806300625317e+003	(7.76104152539428e-001dB,9.59258475908907e+000°)
5.90241845333273e+003	(8.05649750070422e-001dB,9.62982108998792e+000°)
6.03990344080399e+003	(8.34932999485747e-001dB,9.66475767286897e+000°)
6.18059086502713e+003	(8.63955448448859e-001dB,9.69762473955684e+000°)
6.32455532033671e+003	(8.92721050167889e-001dB,9.72864420625357e+000°)
6.47187313859252e+003	(9.21236014490263e-001dB,9.75802891381664e+000°)
6.62262242965177e+003	(9.49508658769708e-001dB,9.78598195665172e+000°)
6.77688312278400e+003	(9.77549259371022e-001dB,9.81269609444309e+000°)
6.93473700905058e+003	(1.00536990453311e+000dB,9.83835324090160e+000°)
7.09626778467146e+003	(1.03298434917753e+000dB,9.86312402375743e+000°)
7.26156109540197e+003	(1.06040787212486e+000dB,9.88716741036033e+000°)
7.43070458194339e+003	(1.08765713606845e+000dB,9.91063039345704e+000°)
7.60378792641117e+003	(1.11475005055291e+000dB,9.93364773197560e+000°)
7.78090289988555e+003	(1.14170563811358e+000dB,9.95634174196813e+000°)
7.96214341106988e+003	(1.16854390365309e+000dB,9.97882213320823e+000°)
8.14760555608219e+003	(1.19528570706189e+000dB,1.00011858873293e+001°)
8.33738766940664e+003	(1.22195263903098e+000dB,1.00235171737932e+001°)
8.53159037603179e+003	(1.24856689995687e+000dB,1.00458873004016e+001°)
8.73031664480325e+003	(1.27515118179950e+000dB,1.00683546954876e+001°)
8.93367184301919e+003	(1.30172855272588e+000dB,1.00909649193623e+001°)
9.14176379229743e+003	(1.32832234435126e+000dB,1.01137507030162e+001°)
9.35470282574389e+003	(1.35495604137877e+000dB,1.01367320124961e+001°)
9.57260184645269e+003	(1.38165317343512e+000dB,1.01599161377866e+001°)
9.79557638736884e+003	(1.40843720890479e+000dB,1.01832978054168e+001°)
1.00237446725454e+004	(1.43533145057616e+000dB,1.02068593143807e+001°)
1.02572276798272e+004	(1.46235893293277e+000dB,1.02305706953068e+001°)
1.04961492049954e+004	(1.48954232094717e+000dB,1.02543898931303e+001°)
1.07406359274050e+004	(1.51690381026536e+000dB,1.02782629738012e+001°)
1.09908174771524e+004	(1.54446502870649e+000dB,1.03021243558199e+001°)
1.12468265038069e+004	(1.57224693904295e+000dB,1.03258970675977e+001°)
1.15087987467430e+004	(1.60026974307044e+000dB,1.03494930318138e+001°)
1.17768731071117e+004	(1.62855278702677e+000dB,1.03728133780657e+001°)
