Freq.	(-V(vs)*1000/(V(vi)-V(vs)))-1000
2.00000000000000e+001	(6.38842862178173e+001dB,-3.77043875908403e+001°)
2.04658598456151e+001	(6.38202431996612e+001dB,-3.86469127855103e+001°)
2.09425709610180e+001	(6.37518516205715e+001dB,-3.96105495391891e+001°)
2.14303861047521e+001	(6.36788253362480e+001dB,-4.05951206051297e+001°)
2.19295639228637e+001	(6.36008642562459e+001dB,-4.16003393002775e+001°)
2.24403690860393e+001	(6.35176546341719e+001dB,-4.26257964027921e+001°)
2.29630724299377e+001	(6.34288695538326e+001dB,-4.36709463793965e+001°)
2.34979510987906e+001	(6.33341696353974e+001dB,-4.47350930490100e+001°)
2.40452886923483e+001	(6.32332039846915e+001dB,-4.58173748195543e+001°)
2.46053754162476e+001	(6.31256114068281e+001dB,-4.69167496664772e+001°)
2.51785082358833e+001	(6.30110219023874e+001dB,-4.80319800527191e+001°)
2.57649910338627e+001	(6.28890584601446e+001dB,-4.91616180187882e+001°)
2.63651347711281e+001	(6.27593391549533e+001dB,-5.03039906965139e+001°)
2.69792576518331e+001	(6.26214795528148e+001dB,-5.14571865180462e+001°)
2.76076852920577e+001	(6.24750954175866e+001dB,-5.26190424006816e+001°)
2.82507508924551e+001	(6.23198057054775e+001dB,-5.37871321852819e+001°)
2.89087954149185e+001	(6.21552358248280e+001dB,-5.49587565890935e+001°)
2.95821677633641e+001	(6.19810211302623e+001dB,-5.61309349009809e+001°)
3.02712249687242e+001	(6.17968106127641e+001dB,-5.73003985974902e+001°)
3.09763323782496e+001	(6.16022707413525e+001dB,-5.84635869913763e+001°)
3.16978638492223e+001	(6.13970894086784e+001dB,-5.96166449423097e+001°)
3.24362019471786e+001	(6.11809799328597e+001dB,-6.07554225651095e+001°)
3.31917381487512e+001	(6.09536850720440e+001dB,-6.18754767686239e+001°)
3.39648730492349e+001	(6.07149810172419e+001dB,-6.29720743550839e+001°)
3.47560165749875e+001	(6.04646813434006e+001dB,-6.40401963132812e+001°)
3.55655882007784e+001	(6.02026409187829e+001dB,-6.50745428582161e+001°)
3.63940171721997e+001	(5.99287597984774e+001dB,-6.60695387162614e+001°)
3.72417427332573e+001	(5.96429871589760e+001dB,-6.70193381386356e+001°)
3.81092143592649e+001	(5.93453253665910e+001dB,-6.79178291595576e+001°)
3.89968919951609e+001	(5.90358343120868e+001dB,-6.87586367108222e+001°)
3.99052462993776e+001	(5.87146361859979e+001dB,-6.95351243746615e+001°)
4.08347588933906e+001	(5.83819209119441e+001dB,-7.02403948155346e+001°)
4.17859226170808e+001	(5.80379524966790e+001dB,-7.08672892944356e+001°)
4.27592417900446e+001	(5.76830765925412e+001dB,-7.14083871535828e+001°)
4.37552324789910e+001	(5.73177295963523e+001dB,-7.18560067850985e+001°)
4.47744227713668e+001	(5.69424496226758e+001dB,-7.22022103855085e+001°)
4.58173530553554e+001	(5.65578896803774e+001dB,-7.24388157694737e+001°)
4.68845763063984e+001	(5.61648333377313e+001dB,-7.25574196862798e+001°)
4.79766583803898e+001	(5.57642130664334e+001dB,-7.25494384511982e+001°)
4.90941783137006e+001	(5.53571312869481e+001dB,-7.24061732396131e+001°)
5.02377286301916e+001	(5.49448838688110e+001dB,-7.21189090081733e+001°)
5.14079156553772e+001	(5.45289854375358e+001dB,-7.16790575260894e+001°)
5.26053598379076e+001	(5.41111952715341e+001dB,-7.10783561079338e+001°)
5.38306960785383e+001	(5.36935418131274e+001dB,-7.03091338380413e+001°)
5.50845740667633e+001	(5.32783428663154e+001dB,-6.93646556448458e+001°)
5.63676586252890e+001	(5.28682174579146e+001dB,-6.82395505816625e+001°)
5.76806300625321e+001	(5.24660842261767e+001dB,-6.69303230390805e+001°)
5.90241845333277e+001	(5.20751403149094e+001dB,-6.54359334315223e+001°)
6.03990344080403e+001	(5.16988144680260e+001dB,-6.37584178589091e+001°)
6.18059086502718e+001	(5.13406888263920e+001dB,-6.19034953363246e+001°)
6.32455532033675e+001	(5.10043863221540e+001dB,-5.98810894470523e+001°)
6.47187313859256e+001	(5.06934248495634e+001dB,-5.77056742012300e+001°)
6.62262242965182e+001	(5.04110453978898e+001dB,-5.53963489219707e+001°)
6.77688312278404e+001	(5.01600281681518e+001dB,-5.29765615863268e+001°)
6.93473700905062e+001	(4.99425166985770e+001dB,-5.04734383200441e+001°)
7.09626778467150e+001	(4.97598731096899e+001dB,-4.79167357972081e+001°)
7.26156109540202e+001	(4.96125860021862e+001dB,-4.53375015061128e+001°)
7.43070458194344e+001	(4.95002457903844e+001dB,-4.27665860613748e+001°)
7.60378792641121e+001	(4.94215915935080e+001dB,-4.02331836607952e+001°)
7.78090289988560e+001	(4.93746220077453e+001dB,-3.77635707819917e+001°)
7.96214341106993e+001	(4.93567523763176e+001dB,-3.53801713175993e+001°)
8.14760555608224e+001	(4.93649959546666e+001dB,-3.31010122706152e+001°)
8.33738766940670e+001	(4.93961463412796e+001dB,-3.09395669772423e+001°)
8.53159037603184e+001	(4.94469427407029e+001dB,-2.89049292596559e+001°)
8.73031664480331e+001	(4.95142060969007e+001dB,-2.70022309138889e+001°)
8.93367184301925e+001	(4.95949408630242e+001dB,-2.52332069408324e+001°)
9.14176379229749e+001	(4.96864027141563e+001dB,-2.35968223997065e+001°)
9.35470282574395e+001	(4.97861362096076e+001dB,-2.20898939506397e+001°)
9.57260184645275e+001	(4.98919882784051e+001dB,-2.07076610723142e+001°)
9.79557638736891e+001	(5.00021038259458e+001dB,-1.94442818513102e+001°)
1.00237446725454e+002	(5.01149092515828e+001dB,-1.82932438002020e+001°)
1.02572276798273e+002	(5.02290886859413e+001dB,-1.72476908594741e+001°)
1.04961492049954e+002	(5.03435566385972e+001dB,-1.63006741363542e+001°)
1.07406359274050e+002	(5.04574296958942e+001dB,-1.54453370375571e+001°)
1.09908174771525e+002	(5.05699990246272e+001dB,-1.46750463066096e+001°)
1.12468265038070e+002	(5.06807047492034e+001dB,-1.39834799598306e+001°)
1.15087987467431e+002	(5.07891127666952e+001dB,-1.33646818805353e+001°)
1.17768731071118e+002	(5.08948942166359e+001dB,-1.28130913163574e+001°)
1.20511917214871e+002	(5.09978075962663e+001dB,-1.23235539959354e+001°)
1.23319000372296e+002	(5.10976833752971e+001dB,-1.18913201824541e+001°)
1.26191468896038e+002	(5.11944108904496e+001dB,-1.15120337760202e+001°)
1.29130845806931e+002	(5.12879272683682e+001dB,-1.11817155794756e+001°)
1.32138689601519e+002	(5.13782081206872e+001dB,-1.08967430414258e+001°)
1.35216595078396e+002	(5.14652597662837e+001dB,-1.06538281619594e+001°)
1.38366194183787e+002	(5.15491127556967e+001dB,-1.04499947628067e+001°)
1.41589156876827e+002	(5.16298164965369e+001dB,-1.02825559572488e+001°)
1.44887192014998e+002	(5.17074348034043e+001dB,-1.01490923815504e+001°)
1.48262048260183e+002	(5.17820422196125e+001dB,-1.00474315483854e+001°)
1.51715515005836e+002	(5.18537209798947e+001dB,-9.97562853675371e+000°)
1.55249423325738e+002	(5.19225585027954e+001dB,-9.93194812873068e+000°)
1.58865646944856e+002	(5.19886453185337e+001dB,-9.91484843053032e+000°)
1.62566103232819e+002	(5.20520733528081e+001dB,-9.92296596559106e+000°)
1.66352754220534e+002	(5.21129344994919e+001dB,-9.95510219451517e+000°)
1.70227607640475e+002	(5.21713194256583e+001dB,-1.00102113959803e+001°)
1.74192717991216e+002	(5.22273165611120e+001dB,-1.00873898306620e+001°)
1.78250187626749e+002	(5.22810112318153e+001dB,-1.01858661041013e+001°)
1.82402167871181e+002	(5.23324849024996e+001dB,-1.03049926423783e+001°)
1.86650860159398e+002	(5.23818144985138e+001dB,-1.04442381948869e+001°)
1.90998517204287e+002	(5.24290717807671e+001dB,-1.06031812804133e+001°)
1.95447444191162e+002	(5.24743227505915e+001dB,-1.07815044952255e+001°)
1.99999999999999e+002	(5.25176270636088e+001dB,-1.09789896043459e+001°)
2.04658598456150e+002	(5.25590374333240e+001dB,-1.11955133390850e+001°)
2.09425709610179e+002	(5.25985990062779e+001dB,-1.14310438248360e+001°)
2.14303861047521e+002	(5.26363486912279e+001dB,-1.16856375626217e+001°)
2.19295639228636e+002	(5.26723144250583e+001dB,-1.19594368855856e+001°)
2.24403690860392e+002	(5.27065143579986e+001dB,-1.22526678070871e+001°)
2.29630724299376e+002	(5.27389559402919e+001dB,-1.25656381698178e+001°)
2.34979510987905e+002	(5.27696348917767e+001dB,-1.28987359949035e+001°)
2.40452886923482e+002	(5.27985340349519e+001dB,-1.32524279156137e+001°)
2.46053754162476e+002	(5.28256219710919e+001dB,-1.36272575613946e+001°)
2.51785082358833e+002	(5.28508515779290e+001dB,-1.40238437335928e+001°)
2.57649910338626e+002	(5.28741583064638e+001dB,-1.44428781834598e+001°)
2.63651347711281e+002	(5.28954582537554e+001dB,-1.48851227647684e+001°)
2.69792576518330e+002	(5.29146459883094e+001dB,-1.53514056863278e+001°)
2.76076852920576e+002	(5.29315921052132e+001dB,-1.58426165326595e+001°)
2.82507508924550e+002	(5.29461404898701e+001dB,-1.63596996527061e+001°)
2.89087954149185e+002	(5.29581052725506e+001dB,-1.69036454355434e+001°)
2.95821677633641e+002	(5.29672674617187e+001dB,-1.74754788977371e+001°)
3.02712249687241e+002	(5.29733712530177e+001dB,-1.80762448989824e+001°)
3.09763323782495e+002	(5.29761200240085e+001dB,-1.87069891815796e+001°)
3.16978638492222e+002	(5.29751720435339e+001dB,-1.93687342974920e+001°)
3.24362019471785e+002	(5.29701359504950e+001dB,-2.00624493488289e+001°)
3.31917381487511e+002	(5.29605660916100e+001dB,-2.07890123314876e+001°)
3.39648730492348e+002	(5.29459578533234e+001dB,-2.15491637501332e+001°)
3.47560165749874e+002	(5.29257431813269e+001dB,-2.23434500843383e+001°)
3.55655882007783e+002	(5.28992865537813e+001dB,-2.31721556568632e+001°)
3.63940171721995e+002	(5.28658817622540e+001dB,-2.40352215213280e+001°)
3.72417427332572e+002	(5.28247499572773e+001dB,-2.49321501931289e+001°)
3.81092143592648e+002	(5.27750395308835e+001dB,-2.58618954496041e+001°)
3.89968919951608e+002	(5.27158285310113e+001dB,-2.68227370854038e+001°)
3.99052462993775e+002	(5.26461304226623e+001dB,-2.78121414908584e+001°)
4.08347588933904e+002	(5.25649041132989e+001dB,-2.88266102809942e+001°)
4.17859226170806e+002	(5.24710692246853e+001dB,-2.98615209739209e+001°)
4.27592417900445e+002	(5.23635275941091e+001dB,-3.09109658906556e+001°)
4.37552324789909e+002	(5.22411918949712e+001dB,-3.19675979504987e+001°)
4.47744227713666e+002	(5.21030220501761e+001dB,-3.30224947085356e+001°)
4.58173530553553e+002	(5.19480697472980e+001dB,-3.40650545701620e+001°)
4.68845763063983e+002	(5.17755308405981e+001dB,-3.50829412783683e+001°)
4.79766583803896e+002	(5.15848047500155e+001dB,-3.60620941037807e+001°)
4.90941783137004e+002	(5.13755591743303e+001dB,-3.69868212816580e+001°)
5.02377286301914e+002	(5.11477975817016e+001dB,-3.78399928269604e+001°)
5.14079156553771e+002	(5.09019260982847e+001dB,-3.86033457709387e+001°)
5.26053598379074e+002	(5.06388156575327e+001dB,-3.92579101469068e+001°)
5.38306960785381e+002	(5.03598546550758e+001dB,-3.97845579048568e+001°)
5.50845740667631e+002	(5.00669869054679e+001dB,-4.01646695704484e+001°)
5.63676586252888e+002	(4.97627294266179e+001dB,-4.03809049378633e+001°)
5.76806300625319e+002	(4.94501645072668e+001dB,-4.04180541539328e+001°)
5.90241845333275e+002	(4.91329007311019e+001dB,-4.02639337173767e+001°)
6.03990344080401e+002	(4.88149983474253e+001dB,-3.99102777991739e+001°)
6.18059086502716e+002	(4.85008559383425e+001dB,-3.93535593333270e+001°)
6.32455532033673e+002	(4.81950581464784e+001dB,-3.85956597054648e+001°)
6.47187313859254e+002	(4.79021885801358e+001dB,-3.76442951201070e+001°)
6.62262242965179e+002	(4.76266177762497e+001dB,-3.65131084694824e+001°)
6.77688312278402e+002	(4.73722824595509e+001dB,-3.52213546229622e+001°)
6.93473700905060e+002	(4.71424777185592e+001dB,-3.37931482942921e+001°)
7.09626778467148e+002	(4.69396861314848e+001dB,-3.22563040590099e+001°)
7.26156109540200e+002	(4.67654656526781e+001dB,-3.06408661625929e+001°)
7.43070458194342e+002	(4.66204107730918e+001dB,-2.89774835762484e+001°)
7.60378792641119e+002	(4.65041904104322e+001dB,-2.72958153921432e+001°)
7.78090289988558e+002	(4.64156539627393e+001dB,-2.56231429586706e+001°)
7.96214341106991e+002	(4.63529871970998e+001dB,-2.39833206554011e+001°)
8.14760555608222e+002	(4.63138944961051e+001dB,-2.23961309882573e+001°)
8.33738766940667e+002	(4.62957841011349e+001dB,-2.08770410379830e+001°)
8.53159037603181e+002	(4.62959373499266e+001dB,-1.94373028698364e+001°)
8.73031664480328e+002	(4.63116495230083e+001dB,-1.80843091377123e+001°)
8.93367184301922e+002	(4.63403367545091e+001dB,-1.68221070330544e+001°)
9.14176379229746e+002	(4.63796090841162e+001dB,-1.56519832478344e+001°)
9.35470282574392e+002	(4.64273134833402e+001dB,-1.45730518917713e+001°)
9.57260184645272e+002	(4.64815525974085e+001dB,-1.35827993018190e+001°)
9.79557638736888e+002	(4.65406854009047e+001dB,-1.26775596594097e+001°)
1.00237446725454e+003	(4.66033154845682e+001dB,-1.18529109536032e+001°)
1.02572276798272e+003	(4.66682717336165e+001dB,-1.11039915922287e+001°)
1.04961492049954e+003	(4.67345850603180e+001dB,-1.04257444347717e+001°)
1.07406359274050e+003	(4.68014638196808e+001dB,-9.81309820562139e+000°)
1.09908174771524e+003	(4.68682696664751e+001dB,-9.26109718519093e+000°)
1.12468265038069e+003	(4.69344949336586e+001dB,-8.76498964516599e+000°)
1.15087987467431e+003	(4.69997421159970e+001dB,-8.32028434149226e+000°)
1.17768731071117e+003	(4.70637056994630e+001dB,-7.92278293956424e+000°)
1.20511917214871e+003	(4.71261563531759e+001dB,-7.56859478506511e+000°)
1.23319000372296e+003	(4.71869273647861e+001dB,-7.25413909411850e+000°)
1.26191468896038e+003	(4.72459031260852e+001dB,-6.97613848127343e+000°)
1.29130845806930e+003	(4.73030094428869e+001dB,-6.73160678873355e+000°)
1.32138689601518e+003	(4.73582054368794e+001dB,-6.51783341435330e+000°)
1.35216595078396e+003	(4.74114768166063e+001dB,-6.33236573613200e+000°)
1.38366194183787e+003	(4.74628303127888e+001dB,-6.17299077021773e+000°)
1.41589156876827e+003	(4.75122890951471e+001dB,-6.03771685136303e+000°)
1.44887192014997e+003	(4.75598890107605e+001dB,-5.92475586577267e+000°)
1.48262048260183e+003	(4.76056755060796e+001dB,-5.83250637636544e+000°)
1.51715515005836e+003	(4.76497011150263e+001dB,-5.75953784335337e+000°)
1.55249423325738e+003	(4.76920234137511e+001dB,-5.70457604571198e+000°)
1.58865646944855e+003	(4.77327033584542e+001dB,-5.66648974147868e+000°)
1.62566103232819e+003	(4.77718039362867e+001dB,-5.64427855903055e+000°)
1.66352754220533e+003	(4.78093890708950e+001dB,-5.63706208166836e+000°)
1.70227607640474e+003	(4.78455227338797e+001dB,-5.64407006947605e+000°)
1.74192717991215e+003	(4.78802682215256e+001dB,-5.66463375222808e+000°)
1.78250187626748e+003	(4.79136875628508e+001dB,-5.69817812260249e+000°)
1.82402167871181e+003	(4.79458410305124e+001dB,-5.74421515832205e+000°)
1.86650860159397e+003	(4.79767867305729e+001dB,-5.80233790374669e+000°)
1.90998517204286e+003	(4.80065802507344e+001dB,-5.87221534494523e+000°)
1.95447444191161e+003	(4.80352743495090e+001dB,-5.95358801664954e+000°)
1.99999999999999e+003	(4.80629186710279e+001dB,-6.04626428426319e+000°)
2.04658598456150e+003	(4.80895594718808e+001dB,-6.15011724885494e+000°)
2.09425709610179e+003	(4.81152393476056e+001dB,-6.26508222757040e+000°)
2.14303861047520e+003	(4.81399969472497e+001dB,-6.39115476588078e+000°)
2.19295639228636e+003	(4.81638666648714e+001dB,-6.52838914139128e+000°)
2.24403690860391e+003	(4.81868782969434e+001dB,-6.67689732135648e+000°)
2.29630724299375e+003	(4.82090566544084e+001dB,-6.83684833739733e+000°)
2.34979510987905e+003	(4.82304211176176e+001dB,-7.00846804097861e+000°)
2.40452886923481e+003	(4.82509851215673e+001dB,-7.19203920168382e+000°)
2.46053754162475e+003	(4.82707555577469e+001dB,-7.38790190691102e+000°)
2.51785082358832e+003	(4.82897320775129e+001dB,-7.59645421585760e+000°)
2.57649910338625e+003	(4.83079062802174e+001dB,-7.81815301202689e+000°)
2.63651347711280e+003	(4.83252607673458e+001dB,-8.05351498631602e+000°)
2.69792576518329e+003	(4.83417680416699e+001dB,-8.30311766612703e+000°)
2.76076852920575e+003	(4.83573892279321e+001dB,-8.56760038388157e+000°)
2.82507508924549e+003	(4.83720725888879e+001dB,-8.84766504943359e+000°)
2.89087954149184e+003	(4.83857518077476e+001dB,-9.14407655359431e+000°)
2.95821677633640e+003	(4.83983440053086e+001dB,-9.45766258231967e+000°)
3.02712249687240e+003	(4.84097474575981e+001dB,-9.78931256080310e+000°)
3.09763323782494e+003	(4.84198389779670e+001dB,-1.01399753709763e+001°)
3.16978638492221e+003	(4.84284709268041e+001dB,-1.05106553917451e+001°)
3.24362019471784e+003	(4.84354678130670e+001dB,-1.09024062953251e+001°)
3.31917381487510e+003	(4.84406224556350e+001dB,-1.13163218918153e+001°)
3.39648730492347e+003	(4.84436916804438e+001dB,-1.17535231445705e+001°)
3.47560165749873e+003	(4.84443915432793e+001dB,-1.22151402787509e+001°)
3.55655882007782e+003	(4.84423920904026e+001dB,-1.27022886742346e+001°)
3.63940171721994e+003	(4.84373117029504e+001dB,-1.32160369750404e+001°)
3.72417427332571e+003	(4.84287111201924e+001dB,-1.37573655691261e+001°)
3.81092143592647e+003	(4.84160873058899e+001dB,-1.43271133124888e+001°)
3.89968919951606e+003	(4.83988674165237e+001dB,-1.49259101203819e+001°)
3.99052462993773e+003	(4.83764032556209e+001dB,-1.55540928750381e+001°)
4.08347588933903e+003	(4.83479667598815e+001dB,-1.62116020771592e+001°)
4.17859226170805e+003	(4.83127472633959e+001dB,-1.68978569020607e+001°)
4.27592417900444e+003	(4.82698515248962e+001dB,-1.76116069515141e+001°)
4.37552324789908e+003	(4.82183077711879e+001dB,-1.83507601961658e+001°)
4.47744227713665e+003	(4.81570752873776e+001dB,-1.91121885868071e+001°)
4.58173530553552e+003	(4.80850613340962e+001dB,-1.98915157863710e+001°)
4.68845763063981e+003	(4.80011473346615e+001dB,-2.06828956084925e+001°)
4.79766583803895e+003	(4.79042262673045e+001dB,-2.14787950983356e+001°)
4.90941783137003e+003	(4.77932529125716e+001dB,-2.22698025949021e+001°)
5.02377286301913e+003	(4.76673079246315e+001dB,-2.30444880705241e+001°)
5.14079156553769e+003	(4.75256755080799e+001dB,-2.37893496015217e+001°)
5.26053598379073e+003	(4.73679327251636e+001dB,-2.44888845305272e+001°)
5.38306960785379e+003	(4.71940461600101e+001dB,-2.51258248470707e+001°)
5.50845740667629e+003	(4.70044689927415e+001dB,-2.56815714609333e+001°)
5.63676586252887e+003	(4.68002288234150e+001dB,-2.61368495462484e+001°)
5.76806300625317e+003	(4.65829943377074e+001dB,-2.64725860084961e+001°)
5.90241845333273e+003	(4.63551077470094e+001dB,-2.66709808476758e+001°)
6.03990344080399e+003	(4.61195705117548e+001dB,-2.67167091934958e+001°)
6.18059086502713e+003	(4.58799727003133e+001dB,-2.65981546986547e+001°)
6.32455532033671e+003	(4.56403616975438e+001dB,-2.63085444746486e+001°)
6.47187313859252e+003	(4.54050536439699e+001dB,-2.58468389280646e+001°)
6.62262242965177e+003	(4.51784001100377e+001dB,-2.52182348071396e+001°)
6.77688312278400e+003	(4.49645315241991e+001dB,-2.44341722644119e+001°)
6.93473700905058e+003	(4.47671056396258e+001dB,-2.35117971004751e+001°)
7.09626778467146e+003	(4.45890916290370e+001dB,-2.24729097160436e+001°)
7.26156109540197e+003	(4.44326167744850e+001dB,-2.13425162695551e+001°)
7.43070458194339e+003	(4.42988932797458e+001dB,-2.01471639013631e+001°)
7.60378792641117e+003	(4.41882294937894e+001dB,-1.89132720054292e+001°)
7.78090289988555e+003	(4.41001161847075e+001dB,-1.76656571720508e+001°)
7.96214341106988e+003	(4.40333679512145e+001dB,-1.64263965613006e+001°)
8.14760555608219e+003	(4.39862946847580e+001dB,-1.52141005732961e+001°)
8.33738766940664e+003	(4.39568785456018e+001dB,-1.40435920865297e+001°)
8.53159037603179e+003	(4.39429368183795e+001dB,-1.29259332216824e+001°)
8.73031664480325e+003	(4.39422580418536e+001dB,-1.18687095036617e+001°)
8.93367184301919e+003	(4.39527058437101e+001dB,-1.08764744200188e+001°)
9.14176379229743e+003	(4.39722905447801e+001dB,-9.95126802533474e+000°)
9.35470282574389e+003	(4.39992122675999e+001dB,-9.09314308822129e+000°)
9.57260184645269e+003	(4.40318810877199e+001dB,-8.30065425312713e+000°)
9.79557638736884e+003	(4.40689201479838e+001dB,-7.57128523766530e+000°)
1.00237446725454e+004	(4.41091571465264e+001dB,-6.90180411500707e+000°)
1.02572276798272e+004	(4.41516086649436e+001dB,-6.28854692411892e+000°)
1.04961492049954e+004	(4.41954607458644e+001dB,-5.72763587862180e+000°)
1.07406359274050e+004	(4.42400481486624e+001dB,-5.21514134570204e+000°)
1.09908174771524e+004	(4.42848338963436e+001dB,-4.74719756784750e+000°)
1.12468265038069e+004	(4.43293900979483e+001dB,-4.32008164472764e+000°)
1.15087987467430e+004	(4.43733805751559e+001dB,-3.93026419170279e+000°)
