time	V(v2)	V(vout)
0.000000000000000e+000	0.000000e+000	1.097028e-004
1.804151767661974e-009	1.133803e-003	1.096485e-004
3.608303535323949e-009	2.267105e-003	1.097306e-004
5.412455302985923e-009	3.399904e-003	1.099490e-004
7.216607070647897e-009	4.532201e-003	1.103038e-004
9.020758838309872e-009	5.663995e-003	1.107950e-004
1.082491060597185e-008	6.795287e-003	1.114225e-004
1.262906237363382e-008	7.926078e-003	1.121863e-004
1.555874987363382e-008	9.759461e-003	1.141900e-004
1.848843737363381e-008	1.158954e-002	1.170950e-004
2.141812487363381e-008	1.341568e-002	1.210950e-004
2.434781237363381e-008	1.523729e-002	1.263995e-004
2.727749987363381e-008	1.705373e-002	1.332359e-004
3.020718737363381e-008	1.886439e-002	1.418494e-004
3.313687487363381e-008	2.066866e-002	1.525035e-004
3.606656237363380e-008	2.246593e-002	1.654795e-004
3.899624987363380e-008	2.425558e-002	1.810755e-004
4.192593737363380e-008	2.603702e-002	1.996048e-004
4.485562487363380e-008	2.780963e-002	2.213948e-004
4.778531237363380e-008	2.957282e-002	2.467851e-004
5.071499987363380e-008	3.132599e-002	2.761253e-004
5.364468737363380e-008	3.306855e-002	3.097736e-004
5.657437487363379e-008	3.479990e-002	3.480941e-004
5.950406237363379e-008	3.651946e-002	3.914551e-004
6.243374987363380e-008	3.822665e-002	4.402267e-004
6.536343737363380e-008	3.992088e-002	4.947791e-004
6.829312487363381e-008	4.160158e-002	5.554801e-004
7.122281237363381e-008	4.326819e-002	6.226937e-004
7.415249987363382e-008	4.492014e-002	6.967775e-004
7.708218737363382e-008	4.655687e-002	7.780814e-004
8.001187487363383e-008	4.817782e-002	8.669453e-004
8.294156237363383e-008	4.978245e-002	9.636982e-004
8.587124987363384e-008	5.137021e-002	1.068656e-003
8.880093737363384e-008	5.294057e-002	1.182120e-003
9.173062487363385e-008	5.449299e-002	1.304376e-003
9.466031237363385e-008	5.602694e-002	1.435692e-003
9.758999987363386e-008	5.754191e-002	1.576320e-003
1.005196873736339e-007	5.903738e-002	1.726489e-003
1.034493748736339e-007	6.051284e-002	1.886410e-003
1.063790623736339e-007	6.196781e-002	2.056274e-003
1.093087498736339e-007	6.340177e-002	2.236247e-003
1.151681248736339e-007	6.620478e-002	2.627075e-003
1.210274998736339e-007	6.891806e-002	3.059768e-003
1.268868748736339e-007	7.153794e-002	3.534810e-003
1.327462498736339e-007	7.406088e-002	4.052285e-003
1.356759373736338e-007	7.528491e-002	4.326849e-003
1.386056248736338e-007	7.648344e-002	4.611870e-003
1.415353123736338e-007	7.765605e-002	4.907242e-003
1.444649998736338e-007	7.880235e-002	5.212836e-003
1.473946873736338e-007	7.992195e-002	5.528499e-003
1.503243748736338e-007	8.101447e-002	5.854052e-003
1.532540623736338e-007	8.207953e-002	6.189290e-003
1.561837498736338e-007	8.311678e-002	6.533985e-003
1.591134373736338e-007	8.412588e-002	6.887886e-003
1.620431248736338e-007	8.510646e-002	7.250719e-003
1.649728123736338e-007	8.605821e-002	7.622184e-003
1.679024998736338e-007	8.698080e-002	8.001963e-003
1.708321873736337e-007	8.787392e-002	8.389713e-003
1.737618748736337e-007	8.873726e-002	8.785071e-003
1.766915623736337e-007	8.957054e-002	9.187654e-003
1.796212498736337e-007	9.037347e-002	9.597058e-003
1.825509373736337e-007	9.114577e-002	1.001286e-002
1.854806248736337e-007	9.188719e-002	1.043463e-002
1.884103123736337e-007	9.259748e-002	1.086189e-002
1.913399998736337e-007	9.327639e-002	1.129418e-002
1.942696873736337e-007	9.392370e-002	1.173101e-002
2.001290623736337e-007	9.512262e-002	1.261625e-002
2.059884373736337e-007	9.619264e-002	1.351339e-002
2.118478123736336e-007	9.713228e-002	1.441805e-002
2.177071873736336e-007	9.794030e-002	1.532567e-002
2.235665623736336e-007	9.861559e-002	1.623154e-002
2.294259373736336e-007	9.915721e-002	1.713087e-002
2.352853123736336e-007	9.956447e-002	1.801880e-002
2.411446873736336e-007	9.983680e-002	1.889043e-002
2.440743748736336e-007	9.992223e-002	1.931860e-002
2.470040623736336e-007	9.997381e-002	1.974086e-002
2.499337498736336e-007	9.999152e-002	2.015659e-002
2.528634373736336e-007	9.997535e-002	2.056519e-002
2.557931248736336e-007	9.992529e-002	2.096607e-002
2.587228123736337e-007	9.984139e-002	2.135862e-002
2.616524998736337e-007	9.972365e-002	2.174225e-002
2.645821873736337e-007	9.957212e-002	2.211639e-002
2.704415623736337e-007	9.916791e-002	2.283390e-002
2.763009373736338e-007	9.862931e-002	2.350668e-002
2.850899998736338e-007	9.757106e-002	2.442261e-002
2.938790623736339e-007	9.621533e-002	2.521459e-002
3.026681248736339e-007	9.456626e-002	2.587014e-002
3.114571873736340e-007	9.262887e-002	2.637814e-002
3.173165623736340e-007	9.117997e-002	2.662999e-002
3.231759373736341e-007	8.960751e-002	2.680945e-002
3.319649998736341e-007	8.702184e-002	2.693832e-002
3.407540623736342e-007	8.417085e-002	2.689377e-002
3.466134373736342e-007	8.212704e-002	2.676567e-002
3.503801784450628e-007	8.075214e-002	2.664120e-002
3.541469195164914e-007	7.933406e-002	2.648372e-002
3.579136605879200e-007	7.787281e-002	2.629323e-002
3.616804016593486e-007	7.636839e-002	2.606973e-002
3.654471427307772e-007	7.482079e-002	2.581322e-002
3.692138838022058e-007	7.323002e-002	2.552371e-002
3.729806248736344e-007	7.159608e-002	2.520119e-002
3.796770534450630e-007	6.858210e-002	2.454015e-002
3.863734820164916e-007	6.546109e-002	2.378593e-002
3.930699105879202e-007	6.223307e-002	2.293854e-002
3.997663391593488e-007	5.889802e-002	2.199798e-002
4.064627677307774e-007	5.545595e-002	2.096424e-002
4.131591963022061e-007	5.190686e-002	1.983733e-002
4.198556248736347e-007	4.825075e-002	1.861725e-002
4.269705802307776e-007	4.426784e-002	1.722638e-002
4.340855355879205e-007	4.021710e-002	1.577111e-002
4.412004909450634e-007	3.609854e-002	1.425145e-002
4.483154463022063e-007	3.191217e-002	1.266738e-002
4.554304016593492e-007	2.765798e-002	1.101892e-002
4.625453570164921e-007	2.333597e-002	9.306067e-003
4.696603123736350e-007	1.894614e-002	7.528812e-003
4.734270534450635e-007	1.661411e-002	6.579408e-003
4.771937945164921e-007	1.427607e-002	5.623932e-003
4.809605355879206e-007	1.193200e-002	4.662386e-003
4.847272766593491e-007	9.581917e-003	3.694769e-003
4.884940177307777e-007	7.225808e-003	2.721080e-003
4.922607588022063e-007	4.863677e-003	1.741321e-003
4.960274998736348e-007	2.495525e-003	7.554906e-004
5.018868748736347e-007	-1.185430e-003	-7.763551e-004
5.077462498736346e-007	-4.864779e-003	-2.307997e-003
5.165353123736345e-007	-1.036988e-002	-4.595359e-003
5.219761605879201e-007	-1.377279e-002	-6.007358e-003
5.274170088022058e-007	-1.714982e-002	-7.398590e-003
5.328578570164914e-007	-2.050099e-002	-8.769054e-003
5.382987052307772e-007	-2.382628e-002	-1.011875e-002
5.437395534450628e-007	-2.712571e-002	-1.144768e-002
5.491804016593485e-007	-3.039926e-002	-1.275585e-002
5.546212498736341e-007	-3.364694e-002	-1.404324e-002
5.604806248736340e-007	-3.708992e-002	-1.538736e-002
5.663399998736339e-007	-4.048264e-002	-1.669290e-002
5.751290623736338e-007	-4.546744e-002	-1.857269e-002
5.839181248736337e-007	-5.031361e-002	-2.035066e-002
5.885219195164908e-007	-5.279671e-002	-2.124060e-002
5.931257141593480e-007	-5.523067e-002	-2.209768e-002
5.977295088022050e-007	-5.761549e-002	-2.292192e-002
6.023333034450621e-007	-5.995117e-002	-2.371331e-002
6.069370980879192e-007	-6.223770e-002	-2.447186e-002
6.115408927307763e-007	-6.447508e-002	-2.519756e-002
6.161446873736334e-007	-6.666332e-002	-2.589042e-002
6.249337498736332e-007	-7.067525e-002	-2.711319e-002
6.307931248736332e-007	-7.323088e-002	-2.785690e-002
6.366524998736331e-007	-7.568727e-002	-2.854301e-002
6.395821873736331e-007	-7.687721e-002	-2.886441e-002
6.454415623736330e-007	-7.917853e-002	-2.946392e-002
6.513009373736329e-007	-8.137256e-002	-3.000586e-002
6.600899998736328e-007	-8.445592e-002	-3.071165e-002
6.688790623736327e-007	-8.728180e-002	-3.129066e-002
6.776681248736326e-007	-8.984157e-002	-3.174559e-002
6.835274998736326e-007	-9.139635e-002	-3.198164e-002
6.893868748736325e-007	-9.282728e-002	-3.216525e-002
6.923165623736324e-007	-9.349568e-002	-3.223779e-002
6.952462498736324e-007	-9.413240e-002	-3.229772e-002
7.011056248736323e-007	-9.530995e-002	-3.238044e-002
7.069649998736323e-007	-9.635833e-002	-3.241491e-002
7.157540623736322e-007	-9.768566e-002	-3.237954e-002
7.245431248736321e-007	-9.871516e-002	-3.224461e-002
7.333321873736320e-007	-9.944369e-002	-3.201587e-002
7.421212498736319e-007	-9.986903e-002	-3.169917e-002
7.479806248736318e-007	-9.998348e-002	-3.144208e-002
7.538399998736317e-007	-9.996243e-002	-3.115028e-002
7.567696873736317e-007	-9.990109e-002	-3.099190e-002
7.596993748736317e-007	-9.980590e-002	-3.082548e-002
7.655587498736316e-007	-9.951411e-002	-3.046939e-002
7.714181248736315e-007	-9.908746e-002	-3.008366e-002
7.772774998736314e-007	-9.852652e-002	-2.966991e-002
7.860665623736313e-007	-9.743504e-002	-2.900017e-002
7.936000445164884e-007	-9.625331e-002	-2.837648e-002
8.011335266593455e-007	-9.486509e-002	-2.772201e-002
8.086670088022025e-007	-9.327041e-002	-2.703675e-002
8.162004909450595e-007	-9.146924e-002	-2.632070e-002
8.237339730879167e-007	-8.946160e-002	-2.557387e-002
8.312674552307737e-007	-8.724749e-002	-2.479625e-002
8.388009373736307e-007	-8.482689e-002	-2.398785e-002
8.521937945164877e-007	-7.996933e-002	-2.249513e-002
8.655866516593447e-007	-7.464961e-002	-2.094371e-002
8.789795088022017e-007	-6.886774e-002	-1.933359e-002
8.923723659450586e-007	-6.262373e-002	-1.766476e-002
9.057652230879157e-007	-5.591756e-002	-1.593723e-002
9.191580802307727e-007	-4.874925e-002	-1.415099e-002
9.325509373736296e-007	-4.111878e-002	-1.230605e-002
9.409214730879152e-007	-3.623542e-002	-1.112730e-002
9.492920088022009e-007	-3.128659e-002	-9.927947e-003
9.576625445164864e-007	-2.627231e-002	-8.707978e-003
9.660330802307721e-007	-2.119257e-002	-7.467396e-003
9.744036159450578e-007	-1.604738e-002	-6.206202e-003
9.827741516593432e-007	-1.083673e-002	-4.924395e-003
9.911446873736289e-007	-5.560616e-003	-3.621976e-003
9.961670088022002e-007	-2.400060e-003	-2.831533e-003
1.001189330230772e-006	7.550467e-004	-2.035657e-003
1.006211651659343e-006	3.904706e-003	-1.234349e-003
1.011233973087914e-006	7.048917e-003	-4.276076e-004
1.016256294516486e-006	1.018768e-002	3.845665e-004
1.021278615945057e-006	1.332099e-002	1.202174e-003
1.026300937373629e-006	1.644886e-002	2.025213e-003
1.032997365945057e-006	2.060069e-002	3.131319e-003
1.039693794516485e-006	2.469822e-002	4.239157e-003
1.046390223087914e-006	2.874143e-002	5.348729e-003
1.053086651659342e-006	3.273033e-002	6.460034e-003
1.059783080230771e-006	3.666491e-002	7.573072e-003
1.066479508802200e-006	4.054519e-002	8.687844e-003
1.073175937373628e-006	4.437116e-002	9.804348e-003
1.079035312373628e-006	4.763930e-002	1.077371e-002
1.087824374873628e-006	5.241909e-002	1.221784e-002
1.093265223087914e-006	5.530673e-002	1.310725e-002
1.098706071302199e-006	5.812177e-002	1.398585e-002
1.104146919516485e-006	6.086420e-002	1.485366e-002
1.109587767730770e-006	6.353404e-002	1.571067e-002
1.115028615945056e-006	6.613128e-002	1.655687e-002
1.120469464159342e-006	6.865591e-002	1.739228e-002
1.125910312373627e-006	7.110794e-002	1.821688e-002
1.134699374873627e-006	7.487971e-002	1.951003e-002
1.140977276659341e-006	7.744342e-002	2.041084e-002
1.147255178445056e-006	7.987777e-002	2.128048e-002
1.153533080230770e-006	8.218276e-002	2.211896e-002
1.159810982016484e-006	8.435841e-002	2.292628e-002
1.166088883802198e-006	8.640470e-002	2.370243e-002
1.172366785587913e-006	8.832163e-002	2.444743e-002
1.178644687373627e-006	9.010921e-002	2.516126e-002
1.184504062373627e-006	9.164350e-002	2.578817e-002
1.189944910587912e-006	9.296004e-002	2.634176e-002
1.195385758802198e-006	9.416482e-002	2.686140e-002
1.200826607016484e-006	9.525784e-002	2.734708e-002
1.206267455230769e-006	9.623910e-002	2.779880e-002
1.211708303445055e-006	9.710859e-002	2.821657e-002
1.217149151659341e-006	9.786632e-002	2.860039e-002
1.222589999873626e-006	9.851229e-002	2.895024e-002
1.227193794516483e-006	9.896720e-002	2.921602e-002
1.231797589159340e-006	9.933873e-002	2.945363e-002
1.236401383802197e-006	9.962688e-002	2.966308e-002
1.241005178445055e-006	9.983166e-002	2.984437e-002
1.245608973087912e-006	9.995306e-002	2.999749e-002
1.250212767730769e-006	9.999109e-002	3.012244e-002
1.254816562373626e-006	9.994575e-002	3.021923e-002
1.260257410587912e-006	9.978260e-002	3.029517e-002
1.265698258802197e-006	9.950406e-002	3.032953e-002
1.271139107016483e-006	9.911013e-002	3.032232e-002
1.276579955230768e-006	9.860082e-002	3.027352e-002
1.282020803445054e-006	9.797611e-002	3.018315e-002
1.287461651659340e-006	9.723602e-002	3.005121e-002
1.292902499873625e-006	9.638053e-002	2.987768e-002
1.297087767730768e-006	9.564548e-002	2.971543e-002
1.301273035587911e-006	9.484580e-002	2.952917e-002
1.305458303445054e-006	9.398150e-002	2.931890e-002
1.309643571302197e-006	9.305258e-002	2.908461e-002
1.313828839159339e-006	9.205904e-002	2.882632e-002
1.318014107016482e-006	9.100087e-002	2.854403e-002
1.322199374873625e-006	8.987808e-002	2.823772e-002
1.330569910587911e-006	8.742928e-002	2.754817e-002
1.338940446302196e-006	8.475898e-002	2.677668e-002
1.347310982016482e-006	8.186716e-002	2.592324e-002
1.355681517730768e-006	7.875384e-002	2.498784e-002
1.364052053445053e-006	7.541901e-002	2.397050e-002
1.372422589159339e-006	7.186267e-002	2.287120e-002
1.380793124873624e-006	6.808482e-002	2.168996e-002
1.391256294516481e-006	6.306647e-002	2.010466e-002
1.401719464159338e-006	5.783488e-002	1.844852e-002
1.412182633802195e-006	5.239004e-002	1.672152e-002
1.422645803445053e-006	4.673196e-002	1.492368e-002
1.433108973087910e-006	4.086063e-002	1.305498e-002
1.443572142730766e-006	3.477606e-002	1.111544e-002
1.454035312373623e-006	2.847825e-002	9.105043e-003
1.460313214159338e-006	2.466113e-002	7.892197e-003
1.466591115945052e-006	2.082069e-002	6.675315e-003
1.472869017730766e-006	1.695693e-002	5.454395e-003
1.479146919516480e-006	1.306985e-002	4.229439e-003
1.485424821302195e-006	9.159444e-003	3.000447e-003
1.491702723087909e-006	5.225717e-003	1.767417e-003
1.497980624873623e-006	1.268669e-003	5.303511e-004
1.503002946302194e-006	-1.894357e-003	-4.548312e-004
1.508025267730766e-006	-5.047675e-003	-1.434006e-003
1.513047589159337e-006	-8.191287e-003	-2.407175e-003
1.518069910587908e-006	-1.132519e-002	-3.374336e-003
1.523092232016480e-006	-1.444939e-002	-4.335490e-003
1.528114553445051e-006	-1.756388e-002	-5.290637e-003
1.533136874873623e-006	-2.066866e-002	-6.239777e-003
1.537740669516480e-006	-2.349534e-002	-7.100911e-003
1.542344464159337e-006	-2.629657e-002	-7.951750e-003
1.546948258802194e-006	-2.907234e-002	-8.792296e-003
1.551552053445051e-006	-3.182265e-002	-9.622548e-003
1.556155848087908e-006	-3.454752e-002	-1.044251e-002
1.560759642730765e-006	-3.724692e-002	-1.125217e-002
1.565363437373622e-006	-3.992088e-002	-1.205154e-002
1.570804285587908e-006	-4.303968e-002	-1.298036e-002
1.576245133802193e-006	-4.609944e-002	-1.388865e-002
1.581685982016479e-006	-4.910018e-002	-1.477641e-002
1.587126830230765e-006	-5.204189e-002	-1.564366e-002
1.592567678445051e-006	-5.492457e-002	-1.649038e-002
1.598008526659336e-006	-5.774822e-002	-1.731658e-002
1.603449374873622e-006	-6.051284e-002	-1.812226e-002
1.612238437373622e-006	-6.481425e-002	-1.937102e-002
1.618934865945050e-006	-6.797206e-002	-2.028242e-002
1.625631294516479e-006	-7.099687e-002	-2.115323e-002
1.632327723087907e-006	-7.388868e-002	-2.198347e-002
1.639024151659336e-006	-7.664748e-002	-2.277311e-002
1.645720580230764e-006	-7.927328e-002	-2.352218e-002
1.652417008802193e-006	-8.176608e-002	-2.423066e-002
1.659113437373621e-006	-8.412588e-002	-2.489855e-002
1.666228392730764e-006	-8.646659e-002	-2.555955e-002
1.673343348087907e-006	-8.862483e-002	-2.616893e-002
1.680458303445049e-006	-9.060058e-002	-2.672669e-002
1.687573258802192e-006	-9.239386e-002	-2.723282e-002
1.694688214159335e-006	-9.400467e-002	-2.768733e-002
1.701803169516478e-006	-9.543299e-002	-2.809022e-002
1.708918124873620e-006	-9.667884e-002	-2.844149e-002
1.718125714159335e-006	-9.799689e-002	-2.881553e-002
1.727333303445049e-006	-9.898209e-002	-2.909899e-002
1.736540892730763e-006	-9.963444e-002	-2.929187e-002
1.745748482016477e-006	-9.995394e-002	-2.939418e-002
1.754956071302191e-006	-9.994060e-002	-2.940590e-002
1.764163660587906e-006	-9.959441e-002	-2.932704e-002
1.773371249873620e-006	-9.891537e-002	-2.915761e-002
1.781323258802191e-006	-9.805206e-002	-2.893705e-002
1.789275267730762e-006	-9.695262e-002	-2.865140e-002
1.797227276659334e-006	-9.561706e-002	-2.830064e-002
1.805179285587905e-006	-9.404539e-002	-2.788480e-002
1.813131294516476e-006	-9.223758e-002	-2.740385e-002
1.821083303445048e-006	-9.019366e-002	-2.685781e-002
1.829035312373619e-006	-8.791362e-002	-2.624667e-002
1.839079955230762e-006	-8.469413e-002	-2.538045e-002
1.849124598087905e-006	-8.117595e-002	-2.442618e-002
1.859169240945047e-006	-7.735906e-002	-2.338386e-002
1.869213883802190e-006	-7.324348e-002	-2.225347e-002
1.879258526659333e-006	-6.882920e-002	-2.103503e-002
1.889303169516475e-006	-6.411622e-002	-1.972854e-002
1.899347812373618e-006	-5.910454e-002	-1.833398e-002
1.909810982016475e-006	-5.361409e-002	-1.679600e-002
1.920274151659332e-006	-4.795528e-002	-1.519956e-002
1.930737321302189e-006	-4.212810e-002	-1.354467e-002
1.941200490945046e-006	-3.613256e-002	-1.183132e-002
1.951663660587903e-006	-2.996865e-002	-1.005951e-002
1.962126830230760e-006	-2.363638e-002	-8.229245e-003
1.972589999873617e-006	-1.713575e-002	-6.340524e-003
1.977612321302189e-006	-1.401124e-002	-5.427706e-003
1.982634642730760e-006	-1.088058e-002	-4.510404e-003
1.987656964159331e-006	-7.743791e-003	-3.588620e-003
1.992679285587903e-006	-4.600859e-003	-2.662352e-003
1.997701607016474e-006	-1.451786e-003	-1.731602e-003
2.002723928445045e-006	1.703427e-003	-7.963678e-004
2.007746249873617e-006	4.864779e-003	1.433492e-004
2.012350044516474e-006	7.757310e-003	1.005601e-003
2.016953839159331e-006	1.063736e-002	1.866293e-003
2.021557633802188e-006	1.350492e-002	2.725426e-003
2.026161428445045e-006	1.636000e-002	3.583001e-003
2.030765223087902e-006	1.920260e-002	4.439016e-003
2.035369017730759e-006	2.203271e-002	5.293473e-003
2.039972812373617e-006	2.485034e-002	6.146370e-003
2.044576607016474e-006	2.764691e-002	6.995090e-003
2.049180401659331e-006	3.041463e-002	7.837033e-003
2.053784196302188e-006	3.315350e-002	8.672200e-003
2.058387990945045e-006	3.586353e-002	9.500589e-003
2.062991785587902e-006	3.854470e-002	1.032220e-002
2.067595580230759e-006	4.119703e-002	1.113704e-002
2.072199374873616e-006	4.382050e-002	1.194509e-002
2.078058749873616e-006	4.710949e-002	1.296114e-002
2.083918124873616e-006	5.032404e-002	1.395695e-002
2.089777499873616e-006	5.346415e-002	1.493255e-002
2.095636874873616e-006	5.652982e-002	1.588792e-002
2.101496249873616e-006	5.952106e-002	1.682308e-002
2.107355624873616e-006	6.243786e-002	1.773801e-002
2.113214999873616e-006	6.528023e-002	1.863271e-002
2.117818794516473e-006	6.744777e-002	1.931692e-002
2.122422589159330e-006	6.955462e-002	1.998354e-002
2.127026383802187e-006	7.160078e-002	2.063259e-002
2.131630178445044e-006	7.358625e-002	2.126405e-002
2.136233973087901e-006	7.551104e-002	2.187793e-002
2.140837767730758e-006	7.737513e-002	2.247424e-002
2.145441562373615e-006	7.917853e-002	2.305296e-002
2.151719464159329e-006	8.153292e-002	2.381138e-002
2.157997365945044e-006	8.375245e-002	2.452929e-002
2.164275267730758e-006	8.583713e-002	2.520669e-002
2.170553169516472e-006	8.778695e-002	2.584357e-002
2.176831071302186e-006	8.960191e-002	2.643993e-002
2.183108973087901e-006	9.128202e-002	2.699578e-002
2.189386874873615e-006	9.282728e-002	2.751112e-002
2.196501830230757e-006	9.440093e-002	2.804096e-002
2.203616785587900e-006	9.578020e-002	2.851105e-002
2.210731740945043e-006	9.696511e-002	2.892137e-002
2.217846696302186e-006	9.795565e-002	2.927192e-002
2.224961651659329e-006	9.875182e-002	2.956272e-002
2.232076607016472e-006	9.935361e-002	2.979374e-002
2.239191562373614e-006	9.976104e-002	2.996501e-002
2.245469464159328e-006	9.995022e-002	3.006321e-002
2.251747365945042e-006	9.998448e-002	3.011338e-002
