time	V(v2)	V(vout)
0.000000000000000e+000	0.000000e+000	1.097027e-004
1.804151767661974e-009	1.133803e-003	1.096484e-004
3.608303535323949e-009	2.267105e-003	1.097304e-004
5.412455302985923e-009	3.399904e-003	1.099487e-004
7.216607070647897e-009	4.532201e-003	1.103034e-004
9.020758838309872e-009	5.663995e-003	1.107943e-004
1.082491060597185e-008	6.795287e-003	1.114217e-004
1.262906237363382e-008	7.926078e-003	1.121853e-004
1.555874987363382e-008	9.759461e-003	1.141897e-004
1.848843737363381e-008	1.158954e-002	1.170973e-004
2.141812487363381e-008	1.341568e-002	1.211034e-004
2.434781237363381e-008	1.523729e-002	1.264197e-004
2.727749987363381e-008	1.705373e-002	1.332760e-004
3.020718737363381e-008	1.886439e-002	1.419212e-004
3.313687487363381e-008	2.066866e-002	1.526229e-004
3.606656237363380e-008	2.246593e-002	1.656673e-004
3.899624987363380e-008	2.425558e-002	1.813582e-004
4.192593737363380e-008	2.603702e-002	2.000158e-004
4.485562487363380e-008	2.780963e-002	2.219753e-004
4.778531237363380e-008	2.957282e-002	2.475847e-004
5.071499987363380e-008	3.132599e-002	2.772038e-004
5.364468737363380e-008	3.306855e-002	3.112013e-004
5.657437487363379e-008	3.479990e-002	3.499534e-004
5.950406237363379e-008	3.651946e-002	3.938411e-004
6.243374987363380e-008	3.822665e-002	4.432489e-004
6.536343737363380e-008	3.992088e-002	4.985618e-004
6.829312487363381e-008	4.160158e-002	5.601639e-004
7.122281237363381e-008	4.326819e-002	6.284359e-004
7.415249987363382e-008	4.492014e-002	7.037533e-004
7.708218737363382e-008	4.655687e-002	7.864845e-004
8.001187487363383e-008	4.817782e-002	8.769886e-004
8.294156237363383e-008	4.978245e-002	9.756144e-004
8.587124987363384e-008	5.137021e-002	1.082698e-003
8.880093737363384e-008	5.294057e-002	1.198560e-003
9.173062487363385e-008	5.449299e-002	1.323508e-003
9.466031237363385e-008	5.602694e-002	1.457831e-003
9.758999987363386e-008	5.754191e-002	1.601798e-003
1.005196873736339e-007	5.903738e-002	1.755659e-003
1.034493748736339e-007	6.051284e-002	1.919646e-003
1.063790623736339e-007	6.196781e-002	2.093964e-003
1.093087498736339e-007	6.340177e-002	2.278798e-003
1.151681248736339e-007	6.620478e-002	2.680630e-003
1.210274998736339e-007	6.891806e-002	3.126117e-003
1.268868748736339e-007	7.153794e-002	3.615814e-003
1.327462498736339e-007	7.406088e-002	4.149836e-003
1.356759373736338e-007	7.528491e-002	4.433380e-003
1.386056248736338e-007	7.648344e-002	4.727842e-003
1.415353123736338e-007	7.765605e-002	5.033109e-003
1.444649998736338e-007	7.880235e-002	5.349037e-003
1.473946873736338e-007	7.992195e-002	5.675452e-003
1.503243748736338e-007	8.101447e-002	6.012155e-003
1.532540623736338e-007	8.207953e-002	6.358914e-003
1.561837498736338e-007	8.311678e-002	6.715470e-003
1.591134373736338e-007	8.412588e-002	7.081538e-003
1.620431248736338e-007	8.510646e-002	7.456801e-003
1.649728123736338e-007	8.605821e-002	7.840917e-003
1.679024998736338e-007	8.698080e-002	8.233516e-003
1.708321873736337e-007	8.787392e-002	8.634202e-003
1.737618748736337e-007	8.873726e-002	9.042553e-003
1.766915623736337e-007	8.957054e-002	9.458119e-003
1.796212498736337e-007	9.037347e-002	9.880430e-003
1.825509373736337e-007	9.114577e-002	1.030899e-002
1.854806248736337e-007	9.188719e-002	1.074328e-002
1.884103123736337e-007	9.259748e-002	1.118275e-002
1.913399998736337e-007	9.327639e-002	1.162685e-002
1.942696873736337e-007	9.392370e-002	1.207498e-002
1.971993748736337e-007	9.453917e-002	1.252655e-002
2.030587498736337e-007	9.567384e-002	1.343751e-002
2.089181248736336e-007	9.667884e-002	1.435453e-002
2.147774998736336e-007	9.755282e-002	1.527222e-002
2.206368748736336e-007	9.829459e-002	1.618494e-002
2.235665623736336e-007	9.861559e-002	1.663764e-002
2.264962498736336e-007	9.890316e-002	1.708692e-002
2.294259373736336e-007	9.915721e-002	1.753204e-002
2.323556248736336e-007	9.937768e-002	1.797225e-002
2.352853123736336e-007	9.956447e-002	1.840681e-002
2.382149998736336e-007	9.971753e-002	1.883495e-002
2.411446873736336e-007	9.983680e-002	1.925594e-002
2.440743748736336e-007	9.992223e-002	1.966901e-002
2.470040623736336e-007	9.997381e-002	2.007341e-002
2.499337498736336e-007	9.999152e-002	2.046840e-002
2.528634373736336e-007	9.997535e-002	2.085323e-002
2.587228123736337e-007	9.984139e-002	2.158948e-002
2.645821873736337e-007	9.957212e-002	2.227636e-002
2.733712498736338e-007	9.891537e-002	2.320183e-002
2.792306248736338e-007	9.830983e-002	2.374106e-002
2.850899998736338e-007	9.757106e-002	2.421216e-002
2.909493748736339e-007	9.670006e-002	2.461039e-002
2.968087498736339e-007	9.569800e-002	2.493131e-002
2.997384373736339e-007	9.514825e-002	2.506151e-002
3.026681248736339e-007	9.456626e-002	2.517091e-002
3.085274998736340e-007	9.330635e-002	2.532555e-002
3.143868748736340e-007	9.191999e-002	2.539204e-002
3.202462498736340e-007	9.040906e-002	2.536766e-002
3.231759373736341e-007	8.960751e-002	2.532067e-002
3.290353123736341e-007	8.791362e-002	2.515593e-002
3.332205802307770e-007	8.662813e-002	2.497986e-002
3.374058480879199e-007	8.528517e-002	2.475454e-002
3.415911159450628e-007	8.388476e-002	2.447995e-002
3.457763838022057e-007	8.242688e-002	2.415611e-002
3.499616516593485e-007	8.091154e-002	2.378300e-002
3.541469195164914e-007	7.933873e-002	2.336064e-002
3.583321873736343e-007	7.770847e-002	2.288902e-002
3.650286159450629e-007	7.497941e-002	2.202194e-002
3.717250445164915e-007	7.213087e-002	2.104591e-002
3.784214730879201e-007	6.916284e-002	1.996093e-002
3.851179016593487e-007	6.607532e-002	1.876699e-002
3.918143302307774e-007	6.286832e-002	1.746409e-002
3.985107588022060e-007	5.954184e-002	1.605223e-002
4.052071873736346e-007	5.609587e-002	1.453141e-002
4.110665623736346e-007	5.300014e-002	1.312666e-002
4.169259373736346e-007	4.984352e-002	1.167799e-002
4.227853123736347e-007	4.662601e-002	1.018540e-002
4.286446873736347e-007	4.334762e-002	8.648910e-003
4.345040623736348e-007	4.000833e-002	7.068503e-003
4.403634373736348e-007	3.660816e-002	5.444185e-003
4.462228123736348e-007	3.314710e-002	3.775955e-003
4.487339730879206e-007	3.165363e-002	3.060348e-003
4.512451338022063e-007	3.015321e-002	2.343179e-003
4.537562945164920e-007	2.864586e-002	1.624450e-003
4.562674552307778e-007	2.713157e-002	9.041588e-004
4.587786159450635e-007	2.561033e-002	1.823069e-004
4.612897766593492e-007	2.408215e-002	-5.411062e-004
4.638009373736349e-007	2.254704e-002	-1.266081e-003
4.667306248736350e-007	2.075010e-002	-2.109522e-003
4.696603123736350e-007	1.894614e-002	-2.951372e-003
4.725899998736350e-007	1.713575e-002	-3.790707e-003
4.784493748736350e-007	1.349817e-002	-5.458163e-003
4.843087498736349e-007	9.842305e-003	-7.104621e-003
4.930978123736348e-007	4.335046e-003	-9.519420e-003
5.018868748736347e-007	-1.185430e-003	-1.184784e-002
5.077462498736346e-007	-4.864779e-003	-1.334128e-002
5.106759373736346e-007	-6.702292e-003	-1.406803e-002
5.165353123736345e-007	-1.036988e-002	-1.547795e-002
5.223946873736345e-007	-1.402342e-002	-1.682519e-002
5.311837498736344e-007	-1.946656e-002	-1.871739e-002
5.370431248736343e-007	-2.306336e-002	-1.988639e-002
5.399728123736343e-007	-2.485034e-002	-2.044161e-002
5.429024998736342e-007	-2.662890e-002	-2.097670e-002
5.458321873736342e-007	-2.839844e-002	-2.149123e-002
5.487618748736341e-007	-3.015835e-002	-2.198482e-002
5.546212498736341e-007	-3.364694e-002	-2.290776e-002
5.604806248736340e-007	-3.708992e-002	-2.374309e-002
5.634103123736340e-007	-3.879286e-002	-2.412729e-002
5.663399998736339e-007	-4.048264e-002	-2.448891e-002
5.692696873736339e-007	-4.215871e-002	-2.482782e-002
5.721993748736339e-007	-4.382050e-002	-2.514389e-002
5.780587498736338e-007	-4.709897e-002	-2.570723e-002
5.839181248736337e-007	-5.031361e-002	-2.617870e-002
5.897774998736337e-007	-5.346006e-002	-2.655865e-002
5.927071873736336e-007	-5.500638e-002	-2.671456e-002
5.956368748736336e-007	-5.653406e-002	-2.684795e-002
5.985665623736336e-007	-5.804259e-002	-2.695903e-002
6.014962498736335e-007	-5.953145e-002	-2.704802e-002
6.044259373736335e-007	-6.100013e-002	-2.711518e-002
6.102853123736334e-007	-6.387501e-002	-2.718520e-002
6.132149998736334e-007	-6.528023e-002	-2.718873e-002
6.161446873736334e-007	-6.666332e-002	-2.717177e-002
6.190743748736333e-007	-6.802383e-002	-2.713473e-002
6.220040623736333e-007	-6.936129e-002	-2.707806e-002
6.249337498736332e-007	-7.067525e-002	-2.700221e-002
6.278634373736332e-007	-7.196526e-002	-2.690767e-002
6.307931248736332e-007	-7.323088e-002	-2.679497e-002
6.337228123736331e-007	-7.447170e-002	-2.666463e-002
6.366524998736331e-007	-7.568727e-002	-2.651722e-002
6.395821873736331e-007	-7.687721e-002	-2.635333e-002
6.425118748736330e-007	-7.804109e-002	-2.617356e-002
6.483712498736330e-007	-8.028915e-002	-2.576889e-002
6.542306248736329e-007	-8.242840e-002	-2.530841e-002
6.600899998736328e-007	-8.445592e-002	-2.479757e-002
6.659493748736328e-007	-8.636900e-002	-2.424203e-002
6.718087498736327e-007	-8.816503e-002	-2.364761e-002
6.776681248736326e-007	-8.984157e-002	-2.302026e-002
6.835274998736326e-007	-9.139635e-002	-2.236598e-002
6.893868748736325e-007	-9.282728e-002	-2.169083e-002
6.952462498736324e-007	-9.413240e-002	-2.100082e-002
7.011056248736323e-007	-9.530995e-002	-2.030192e-002
7.069649998736323e-007	-9.635833e-002	-1.959999e-002
7.128243748736322e-007	-9.727613e-002	-1.890073e-002
7.186837498736321e-007	-9.806209e-002	-1.820964e-002
7.245431248736321e-007	-9.871516e-002	-1.753200e-002
7.304024998736320e-007	-9.923445e-002	-1.687281e-002
7.362618748736319e-007	-9.961924e-002	-1.623675e-002
7.450509373736318e-007	-9.994319e-002	-1.533542e-002
7.538399998736317e-007	-9.996243e-002	-1.450883e-002
7.626290623736316e-007	-9.967689e-002	-1.376789e-002
7.714181248736315e-007	-9.908746e-002	-1.312120e-002
7.743478123736315e-007	-9.882344e-002	-1.292751e-002
7.772774998736314e-007	-9.852622e-002	-1.274540e-002
7.802071873736314e-007	-9.819579e-002	-1.257489e-002
7.831368748736314e-007	-9.783217e-002	-1.241596e-002
7.860665623736313e-007	-9.743535e-002	-1.226862e-002
7.889962498736313e-007	-9.700533e-002	-1.213288e-002
7.919259373736313e-007	-9.654211e-002	-1.200872e-002
7.948556248736312e-007	-9.604650e-002	-1.189638e-002
7.977853123736312e-007	-9.551834e-002	-1.179567e-002
8.007149998736312e-007	-9.495782e-002	-1.170649e-002
8.036446873736311e-007	-9.436513e-002	-1.162873e-002
8.065743748736311e-007	-9.374046e-002	-1.156224e-002
8.095040623736311e-007	-9.308402e-002	-1.150683e-002
8.124337498736310e-007	-9.239605e-002	-1.146229e-002
8.153634373736310e-007	-9.167677e-002	-1.142839e-002
8.182931248736310e-007	-9.092642e-002	-1.140485e-002
8.212228123736309e-007	-9.014527e-002	-1.139137e-002
8.241524998736309e-007	-8.933357e-002	-1.138762e-002
8.270821873736309e-007	-8.849160e-002	-1.139325e-002
8.329415623736308e-007	-8.671801e-002	-1.143109e-002
8.388009373736307e-007	-8.482689e-002	-1.150152e-002
8.446603123736306e-007	-8.282082e-002	-1.160080e-002
8.505196873736306e-007	-8.070250e-002	-1.172481e-002
8.563790623736305e-007	-7.847482e-002	-1.186913e-002
8.622384373736304e-007	-7.614078e-002	-1.202904e-002
8.680978123736304e-007	-7.370355e-002	-1.219958e-002
8.710274998736303e-007	-7.244727e-002	-1.228723e-002
8.739571873736303e-007	-7.116644e-002	-1.237559e-002
8.768868748736303e-007	-6.986149e-002	-1.246397e-002
8.798165623736302e-007	-6.853288e-002	-1.255172e-002
8.827462498736302e-007	-6.718104e-002	-1.263813e-002
8.856759373736302e-007	-6.580644e-002	-1.272252e-002
8.886056248736301e-007	-6.440954e-002	-1.280421e-002
8.915353123736301e-007	-6.299082e-002	-1.288248e-002
8.944649998736301e-007	-6.155076e-002	-1.295666e-002
8.973946873736300e-007	-6.008983e-002	-1.302604e-002
9.003243748736300e-007	-5.860855e-002	-1.308993e-002
9.032540623736300e-007	-5.710741e-002	-1.314765e-002
9.061837498736299e-007	-5.558692e-002	-1.319852e-002
9.091134373736299e-007	-5.404760e-002	-1.324185e-002
9.120431248736298e-007	-5.248995e-002	-1.327699e-002
9.149728123736298e-007	-5.091453e-002	-1.330327e-002
9.179024998736298e-007	-4.932185e-002	-1.332005e-002
9.208321873736297e-007	-4.771247e-002	-1.332670e-002
9.237618748736297e-007	-4.608691e-002	-1.332259e-002
9.266915623736297e-007	-4.444574e-002	-1.330713e-002
9.296212498736296e-007	-4.278951e-002	-1.327972e-002
9.325509373736296e-007	-4.111878e-002	-1.323979e-002
9.354806248736296e-007	-3.943412e-002	-1.318679e-002
9.384103123736295e-007	-3.773610e-002	-1.312019e-002
9.442696873736295e-007	-3.430227e-002	-1.294418e-002
9.501290623736294e-007	-3.082195e-002	-1.270794e-002
9.589181248736293e-007	-2.552465e-002	-1.223334e-002
9.677071873736292e-007	-2.014953e-002	-1.160599e-002
9.764962498736291e-007	-1.471298e-002	-1.081860e-002
9.852853123736290e-007	-9.231563e-003	-9.866398e-003
9.940743748736289e-007	-3.722005e-003	-8.747287e-003
1.002863437373629e-006	1.798901e-003	-7.461946e-003
1.011652499873629e-006	7.314323e-003	-6.013855e-003
1.020441562373629e-006	1.280744e-002	-4.409310e-003
1.026300937373629e-006	1.644886e-002	-3.257053e-003
1.032160312373628e-006	2.006799e-002	-2.042576e-003
1.035089999873628e-006	2.186766e-002	-1.413191e-003
1.038019687373628e-006	2.365991e-002	-7.697366e-004
1.040949374873628e-006	2.544416e-002	-1.127709e-004
1.043879062373628e-006	2.721978e-002	5.571184e-004
1.049738437373628e-006	3.074275e-002	1.933177e-003
1.058527499873628e-006	3.594762e-002	4.077928e-003
1.064386874873628e-006	3.935761e-002	5.553156e-003
1.070246249873628e-006	4.271426e-002	7.057521e-003
1.076105624873628e-006	4.601302e-002	8.584514e-003
1.079035312373628e-006	4.763930e-002	9.354386e-003
1.081964999873628e-006	4.924943e-002	1.012735e-002
1.084894687373628e-006	5.084287e-002	1.090253e-002
1.090754062373628e-006	5.397754e-002	1.245594e-002
1.099543124873628e-006	5.854109e-002	1.477999e-002
1.108332187373628e-006	6.292615e-002	1.707454e-002
1.114191562373628e-006	6.574374e-002	1.857542e-002
1.120050937373627e-006	6.847224e-002	2.004458e-002
1.122980624873627e-006	6.980191e-002	2.076496e-002
1.125910312373627e-006	7.110794e-002	2.147467e-002
1.128839999873627e-006	7.238987e-002	2.217280e-002
1.134699374873627e-006	7.487971e-002	2.353081e-002
1.143488437373627e-006	7.842319e-002	2.545928e-002
1.152277499873627e-006	8.172758e-002	2.723780e-002
1.158136874873627e-006	8.379266e-002	2.832987e-002
1.161066562373627e-006	8.478279e-002	2.884565e-002
1.166925937373627e-006	8.667654e-002	2.981336e-002
1.170692678445055e-006	8.783351e-002	3.039114e-002
1.174459419516484e-006	8.893982e-002	3.092814e-002
1.178226160587913e-006	8.999547e-002	3.142434e-002
1.181992901659341e-006	9.100046e-002	3.187975e-002
1.185759642730770e-006	9.195478e-002	3.229436e-002
1.189526383802198e-006	9.285845e-002	3.266818e-002
1.193293124873627e-006	9.371145e-002	3.300121e-002
1.196222812373627e-006	9.433802e-002	3.322867e-002
1.199152499873626e-006	9.493216e-002	3.342884e-002
1.202082187373626e-006	9.549386e-002	3.360174e-002
1.205011874873626e-006	9.602313e-002	3.374735e-002
1.207941562373626e-006	9.651996e-002	3.386568e-002
1.210871249873626e-006	9.698435e-002	3.395674e-002
1.213800937373626e-006	9.741630e-002	3.402051e-002
1.222589999873626e-006	9.851229e-002	3.404428e-002
1.225519687373626e-006	9.881102e-002	3.399680e-002
1.228449374873626e-006	9.907626e-002	3.392174e-002
1.234308749873626e-006	9.950595e-002	3.368942e-002
1.240168124873626e-006	9.980080e-002	3.334878e-002
1.248957187373626e-006	9.998938e-002	3.263943e-002
1.257746249873626e-006	9.987312e-002	3.170059e-002
1.266535312373626e-006	9.945236e-002	3.054451e-002
1.275324374873626e-006	9.872838e-002	2.918605e-002
1.284113437373625e-006	9.770340e-002	2.764249e-002
1.292902499873625e-006	9.638053e-002	2.593325e-002
1.301691562373625e-006	9.476382e-002	2.407961e-002
1.310480624873625e-006	9.285819e-002	2.210437e-002
1.319269687373625e-006	9.066945e-002	2.003152e-002
1.328058749873625e-006	8.820426e-002	1.788587e-002
1.336847812373625e-006	8.547017e-002	1.569266e-002
1.345636874873625e-006	8.247548e-002	1.347720e-002
1.354425937373625e-006	7.922935e-002	1.126447e-002
1.360285312373625e-006	7.692175e-002	9.787415e-003
1.366144687373625e-006	7.451844e-002	8.345094e-003
1.372004062373624e-006	7.201941e-002	6.937511e-003
1.377863437373624e-006	6.942465e-002	5.564665e-003
1.383722812373624e-006	6.673418e-002	4.226555e-003
1.389582187373624e-006	6.394799e-002	2.923184e-003
1.395441562373624e-006	6.106607e-002	1.654549e-003
1.401300937373624e-006	5.811035e-002	4.544034e-004
1.404230624873624e-006	5.660271e-002	-1.241050e-004
1.407160312373624e-006	5.507588e-002	-6.875671e-004
1.410089999873624e-006	5.353039e-002	-1.235520e-003
1.413019687373624e-006	5.196676e-002	-1.767534e-003
1.415949374873624e-006	5.038553e-002	-2.283213e-003
1.418879062373624e-006	4.878722e-002	-2.782194e-003
1.421808749873624e-006	4.717238e-002	-3.264150e-003
1.424738437373624e-006	4.554156e-002	-3.728786e-003
1.427668124873624e-006	4.389531e-002	-4.175846e-003
1.430597812373624e-006	4.223418e-002	-4.605107e-003
1.433527499873624e-006	4.055875e-002	-5.016382e-003
1.436457187373624e-006	3.886957e-002	-5.409520e-003
1.439386874873624e-006	3.716722e-002	-5.784406e-003
1.442316562373624e-006	3.545228e-002	-6.140961e-003
1.445246249873624e-006	3.372532e-002	-6.479143e-003
1.448175937373624e-006	3.198694e-002	-6.798943e-003
1.451105624873624e-006	3.023771e-002	-7.100390e-003
1.454035312373623e-006	2.847825e-002	-7.383549e-003
1.456964999873623e-006	2.670913e-002	-7.648517e-003
1.459894687373623e-006	2.493096e-002	-7.895430e-003
1.462824374873623e-006	2.314435e-002	-8.124452e-003
1.465754062373623e-006	2.134989e-002	-8.335788e-003
1.468683749873623e-006	1.954820e-002	-8.529671e-003
1.471613437373623e-006	1.773989e-002	-8.706370e-003
1.474543124873623e-006	1.592556e-002	-8.866185e-003
1.477472812373623e-006	1.410584e-002	-9.009445e-003
1.480402499873623e-006	1.228134e-002	-9.136512e-003
1.483332187373623e-006	1.045268e-002	-9.247777e-003
1.486261874873623e-006	8.620473e-003	-9.343659e-003
1.489191562373623e-006	6.785348e-003	-9.424604e-003
1.492121249873623e-006	4.947924e-003	-9.491088e-003
1.495050937373623e-006	3.108823e-003	-9.543611e-003
1.497980624873623e-006	1.268669e-003	-9.582695e-003
1.500910312373623e-006	-5.719146e-004	-9.608889e-003
1.503839999873623e-006	-2.412305e-003	-9.622764e-003
1.506769687373623e-006	-4.251877e-003	-9.624909e-003
1.509699374873623e-006	-6.090009e-003	-9.615934e-003
1.512629062373623e-006	-7.926078e-003	-9.596472e-003
1.515558749873623e-006	-9.759461e-003	-9.567166e-003
1.518488437373623e-006	-1.158954e-002	-9.528679e-003
1.521418124873623e-006	-1.341568e-002	-9.481687e-003
1.524347812373623e-006	-1.523729e-002	-9.426881e-003
1.527277499873623e-006	-1.705373e-002	-9.364959e-003
1.530207187373623e-006	-1.886439e-002	-9.296633e-003
1.533136874873623e-006	-2.066866e-002	-9.222624e-003
1.536066562373623e-006	-2.246593e-002	-9.143656e-003
1.538996249873622e-006	-2.425558e-002	-9.060463e-003
1.541925937373622e-006	-2.603702e-002	-8.973779e-003
1.544855624873622e-006	-2.780963e-002	-8.884344e-003
1.547785312373622e-006	-2.957282e-002	-8.792896e-003
1.550714999873622e-006	-3.132599e-002	-8.700173e-003
1.553644687373622e-006	-3.306855e-002	-8.606913e-003
1.556574374873622e-006	-3.479990e-002	-8.513848e-003
1.559504062373622e-006	-3.651946e-002	-8.421706e-003
1.562433749873622e-006	-3.822665e-002	-8.331208e-003
1.565363437373622e-006	-3.992088e-002	-8.243065e-003
1.568293124873622e-006	-4.160158e-002	-8.157982e-003
1.571222812373622e-006	-4.326819e-002	-8.076649e-003
1.574152499873622e-006	-4.492014e-002	-7.999746e-003
1.577082187373622e-006	-4.655687e-002	-7.927937e-003
1.580011874873622e-006	-4.817782e-002	-7.861872e-003
1.582941562373622e-006	-4.978245e-002	-7.802186e-003
1.585871249873622e-006	-5.137021e-002	-7.749490e-003
1.588800937373622e-006	-5.294057e-002	-7.704383e-003
1.591730624873622e-006	-5.449299e-002	-7.667436e-003
1.594660312373622e-006	-5.602694e-002	-7.639205e-003
1.597589999873622e-006	-5.754191e-002	-7.620217e-003
1.603449374873622e-006	-6.051284e-002	-7.611970e-003
1.606379062373622e-006	-6.196781e-002	-7.623645e-003
